# tracer: nop
#
# entries-in-buffer/entries-written: 16441/18075   #P:4
#
#                              _-----=> irqs-off
#                             / _----=> need-resched
#                            | / _---=> hardirq/softirq
#                            || / _--=> preempt-depth
#                            ||| /     delay
#           TASK-PID   CPU#  ||||    TIMESTAMP  FUNCTION
#              | |       |   ||||       |         |
           zkifc-712   [001] ....   529.048476: i2c_result: i2c-1 n=1 ret=1
           zkifc-712   [001] ....   529.129751: i2c_write: i2c-1 #0 a=030 f=0000 l=596 [de-ad-be-ef-00-00-ff-ff-03-00-40-02-00-00-00-00-32-31-4b-65-f2-cc-af-0d-e9-69-e1-e0-65-05-8b-b2-68-29-a2-4c-7d-bf-f9-f0-00-87-2f-7a-57-53-64-26-69-48-b1-b8-c1-c0-b9-28-a9-f0-e2-b6-8e-39-c0-11]
           zkifc-712   [001] ....   529.183527: i2c_result: i2c-1 n=1 ret=1
           zkifc-712   [001] ....   529.249232: i2c_write: i2c-1 #0 a=030 f=0000 l=596 [de-ad-be-ef-00-00-ff-ff-03-00-40-02-00-00-00-00-37-6f-57-48-54-df-53-ef-31-26-c6-6d-00-53-d0-e9-6a-ec-6d-c6-e7-0e-f9-25-3a-14-6e-d6-9f-ac-a8-f7-57-3f-52-02-c1-c0-b9-28-a9-f0-e2-b6-8e-39-c0-11]
           zkifc-712   [001] ....   529.303017: i2c_result: i2c-1 n=1 ret=1
           zkifc-712   [001] ....   529.368325: i2c_write: i2c-1 #0 a=030 f=0000 l=596 [de-ad-be-ef-00-00-ff-ff-03-00-40-02-00-00-00-00-41-75-6f-73-96-80-3f-e9-a5-b1-54-4f-15-1b-f5-02-37-c4-39-ce-84-7f-0b-63-d0-c9-b1-0e-8e-bb-8f-99-a8-55-44-9b-c1-c0-b9-28-a9-f0-e2-b6-8e-39-c0-11]
           zkifc-712   [001] ....   529.422105: i2c_result: i2c-1 n=1 ret=1
           zkifc-712   [001] ....   529.487273: i2c_write: i2c-1 #0 a=030 f=0000 l=596 [de-ad-be-ef-00-00-ff-ff-03-00-40-02-00-00-00-00-45-70-7a-73-4a-1b-dd-ec-d1-f2-04-df-03-1c-11-bc-6b-d7-b1-b3-ca-66-c5-a2-06-30-9b-91-3d-25-6f-04-2f-ae-f2-3f-c1-c0-b9-28-a9-f0-e2-b6-8e-39-c0-11]
           zkifc-712   [001] ....   529.541046: i2c_result: i2c-1 n=1 ret=1
           zkifc-712   [001] ....   529.605529: i2c_write: i2c-1 #0 a=030 f=0000 l=84 [de-ad-be-ef-00-00-ff-ff-03-00-40-00-00-00-00-00-64-15-80-75-c0-a6-95-9a-57-de-d5-59-f9-94-e1-49-7d-a0-0a-1c-48-ad-e0-5d-62-2c-04-1f-e9-f2-4c-04-ba-61-fb-6e-c1-c0-b9-28-a9-f0-e2-b6-8e-39-c0-11]
           zkifc-712   [001] ....   529.613224: i2c_result: i2c-1 n=1 ret=1
           zkifc-712   [001] ....   529.626064: i2c_write: i2c-1 #0 a=030 f=0000 l=596 [de-ad-be-ef-00-00-ff-ff-03-00-40-02-00-00-00-00-36-33-52-74-de-ed-b4-81-9b-1e-01-e0-c7-24-e3-49-e6-87-76-66-c0-f8-50-22-f1-82-15-4f-6f-f2-b2-05-9a-25-9d-96-c1-c0-b9-28-a9-f0-e2-b6-8e-39-c0-11]
           zkifc-712   [001] ....   529.679842: i2c_result: i2c-1 n=1 ret=1
           zkifc-712   [001] ....   529.745425: i2c_write: i2c-1 #0 a=030 f=0000 l=596 [de-ad-be-ef-00-00-ff-ff-03-00-40-02-00-00-00-00-32-79-72-44-71-d2-cb-99-07-d0-ad-32-0e-4c-d5-64-76-6c-a5-fb-f5-cc-5e-0f-7a-98-21-cf-0e-b4-ba-c0-74-7d-f9-de-c1-c0-b9-28-a9-f0-e2-b6-8e-39-c0-11]
           zkifc-712   [001] ....   529.799200: i2c_result: i2c-1 n=1 ret=1
           zkifc-712   [001] ....   529.864392: i2c_write: i2c-1 #0 a=030 f=0000 l=596 [de-ad-be-ef-00-00-ff-ff-03-00-40-02-00-00-00-00-4d-7a-6a-68-33-1e-cf-eb-90-dd-6e-9a-a8-21-40-ba-09-28-7b-52-5e-1a-62-f9-67-7e-e9-c4-05-82-f2-81-a0-4d-8b-a4-c1-c0-b9-28-a9-f0-e2-b6-8e-39-c0-11]
           zkifc-712   [001] ....   529.918168: i2c_result: i2c-1 n=1 ret=1
           zkifc-712   [001] ....   529.983161: i2c_write: i2c-1 #0 a=030 f=0000 l=596 [de-ad-be-ef-00-00-ff-ff-03-00-40-02-00-00-00-00-6b-61-77-5a-e0-1e-03-44-dd-6e-d6-54-a9-50-e4-4d-83-79-cd-7a-54-71-ab-34-80-c6-ae-31-9d-63-cf-f6-3e-2a-9b-2b-c1-c0-b9-28-a9-f0-e2-b6-8e-39-c0-11]
           zkifc-712   [001] ....   530.062712: i2c_result: i2c-1 n=1 ret=1
           zkifc-712   [001] ....   530.163770: i2c_write: i2c-1 #0 a=030 f=0000 l=596 [de-ad-be-ef-00-00-ff-ff-03-00-40-02-00-00-00-00-35-39-76-43-ed-c1-89-bc-19-0f-f7-e7-be-a7-8f-f6-60-cb-96-2c-57-b2-b8-04-d2-7c-e7-18-ef-e3-57-01-51-14-68-f8-c1-c0-b9-28-a9-f0-e2-b6-8e-39-c0-11]
           zkifc-712   [001] ....   530.249819: i2c_result: i2c-1 n=1 ret=1
           zkifc-712   [001] ....   530.350728: i2c_write: i2c-1 #0 a=030 f=0000 l=596 [de-ad-be-ef-00-00-ff-ff-03-00-40-02-00-00-00-00-69-2f-55-34-ca-07-96-cf-0b-ec-5c-d8-26-f2-fd-2b-66-1b-65-2c-82-7f-04-1a-10-61-b0-f8-1b-cb-92-20-f3-9f-4c-7e-c1-c0-b9-28-a9-f0-e2-b6-8e-39-c0-11]
           zkifc-712   [001] ....   530.436777: i2c_result: i2c-1 n=1 ret=1
           zkifc-712   [001] ....   530.538321: i2c_write: i2c-1 #0 a=030 f=0000 l=596 [de-ad-be-ef-00-00-ff-ff-03-00-40-02-00-00-00-00-50-73-39-62-71-ad-45-06-61-95-a4-a0-23-80-2a-5d-16-79-80-9e-1e-68-40-e0-e4-f9-87-87-59-d7-b7-1a-c7-de-e9-60-c1-c0-b9-28-a9-f0-e2-b6-8e-39-c0-11]
           zkifc-712   [001] ....   530.624382: i2c_result: i2c-1 n=1 ret=1
           zkifc-712   [001] ....   530.725311: i2c_write: i2c-1 #0 a=030 f=0000 l=596 [de-ad-be-ef-00-00-ff-ff-03-00-40-02-00-00-00-00-74-41-48-6b-0c-b9-35-fd-4d-78-54-65-a0-dc-19-38-5d-59-28-d2-18-09-9e-d3-cd-79-11-b1-d5-15-1d-66-35-85-25-16-c1-c0-b9-28-a9-f0-e2-b6-8e-39-c0-11]
           zkifc-712   [001] ....   530.811371: i2c_result: i2c-1 n=1 ret=1
           zkifc-712   [001] ....   530.912313: i2c_write: i2c-1 #0 a=030 f=0000 l=596 [de-ad-be-ef-00-00-ff-ff-03-00-40-02-00-00-00-00-35-76-33-71-00-03-90-07-31-54-a1-46-cb-45-48-b3-62-3f-3a-21-0a-d7-a5-f9-0a-e4-91-8d-1a-82-8c-90-51-31-af-ca-c1-c0-b9-28-a9-f0-e2-b6-8e-39-c0-11]
           zkifc-712   [001] ....   530.998368: i2c_result: i2c-1 n=1 ret=1
           zkifc-712   [001] ....   531.098913: i2c_write: i2c-1 #0 a=030 f=0000 l=596 [de-ad-be-ef-00-00-ff-ff-03-00-40-02-00-00-00-00-54-37-31-34-1a-57-35-8b-b2-34-25-f8-06-07-88-77-7f-29-18-71-b1-c9-43-03-64-81-a1-df-51-ca-1f-f1-cc-a8-39-5d-c1-c0-b9-28-a9-f0-e2-b6-8e-39-c0-11]
           zkifc-712   [001] ....   531.184980: i2c_result: i2c-1 n=1 ret=1
           zkifc-712   [001] ....   531.287402: i2c_write: i2c-1 #0 a=030 f=0000 l=596 [de-ad-be-ef-00-00-ff-ff-03-00-40-02-00-00-00-00-6a-69-4e-44-f8-55-84-53-4f-24-cd-34-57-79-e9-20-4c-f8-88-44-f0-e0-66-62-0e-e3-9d-d3-c1-5c-64-55-a4-ff-63-78-c1-c0-b9-28-a9-f0-e2-b6-8e-39-c0-11]
           zkifc-712   [001] ....   531.373453: i2c_result: i2c-1 n=1 ret=1
           zkifc-712   [001] ....   531.474206: i2c_write: i2c-1 #0 a=030 f=0000 l=596 [de-ad-be-ef-00-00-ff-ff-03-00-40-02-00-00-00-00-37-33-31-35-62-67-54-2c-2b-a5-0c-b7-7c-0a-97-36-91-9b-4c-05-9f-67-aa-95-62-c8-13-23-4b-b0-54-cd-c3-3d-14-1c-c1-c0-b9-28-a9-f0-e2-b6-8e-39-c0-11]
           zkifc-712   [001] ....   531.560254: i2c_result: i2c-1 n=1 ret=1
           zkifc-712   [001] ....   531.660744: i2c_write: i2c-1 #0 a=030 f=0000 l=596 [de-ad-be-ef-00-00-ff-ff-03-00-40-02-00-00-00-00-74-56-57-63-cf-42-fb-b7-e8-8b-91-83-ab-7d-c8-93-0f-9a-60-00-8b-23-2a-3d-c6-84-93-0b-bc-80-bd-cb-32-1d-98-ec-c1-c0-b9-28-a9-f0-e2-b6-8e-39-c0-11]
           zkifc-712   [001] ....   531.746793: i2c_result: i2c-1 n=1 ret=1
           zkifc-712   [001] ....   531.848111: i2c_write: i2c-1 #0 a=030 f=0000 l=596 [de-ad-be-ef-00-00-ff-ff-03-00-40-02-00-00-00-00-70-71-4d-46-a2-91-f0-bf-14-34-be-65-65-ff-e7-e3-0c-1c-57-f6-b1-ad-94-06-19-38-f7-8d-4e-ab-ab-b7-b1-6e-11-94-c1-c0-b9-28-a9-f0-e2-b6-8e-39-c0-11]
           zkifc-712   [001] ....   531.934158: i2c_result: i2c-1 n=1 ret=1
           zkifc-712   [001] ....   532.034825: i2c_write: i2c-1 #0 a=030 f=0000 l=596 [de-ad-be-ef-00-00-ff-ff-03-00-40-02-00-00-00-00-72-33-77-52-e9-3d-31-e1-8c-b6-2f-0d-a8-db-65-26-cb-e5-40-59-24-84-10-d6-3a-b1-a2-51-d0-a0-7d-bd-0f-43-de-eb-c1-c0-b9-28-a9-f0-e2-b6-8e-39-c0-11]
           zkifc-712   [001] ....   532.120921: i2c_result: i2c-1 n=1 ret=1
           zkifc-712   [001] ....   532.222403: i2c_write: i2c-1 #0 a=030 f=0000 l=596 [de-ad-be-ef-00-00-ff-ff-03-00-40-02-00-00-00-00-35-4e-41-77-ac-c4-bc-17-24-62-ab-7e-21-86-fd-ea-bf-91-4d-13-98-73-c5-3d-46-69-f9-f0-b1-07-ab-69-81-70-a4-51-c1-c0-b9-28-a9-f0-e2-b6-8e-39-c0-11]
           zkifc-712   [001] ....   532.308465: i2c_result: i2c-1 n=1 ret=1
           zkifc-712   [001] ....   532.409289: i2c_write: i2c-1 #0 a=030 f=0000 l=596 [de-ad-be-ef-00-00-ff-ff-03-00-40-02-00-00-00-00-74-67-30-2b-33-f3-fb-cb-af-a2-e4-35-9d-b9-94-c7-9d-f2-59-09-5d-bb-fd-2d-72-15-c3-2c-73-61-08-f6-a4-48-51-a8-c1-c0-b9-28-a9-f0-e2-b6-8e-39-c0-11]
           zkifc-712   [001] ....   532.495335: i2c_result: i2c-1 n=1 ret=1
           zkifc-712   [001] ....   532.594366: i2c_write: i2c-1 #0 a=030 f=0000 l=84 [de-ad-be-ef-00-00-ff-ff-03-00-40-00-00-00-00-00-64-15-80-75-14-fe-de-37-ca-c1-f3-d1-9f-53-da-19-d8-ea-1d-79-1b-6a-49-3d-1e-15-46-ec-a7-53-d9-da-ee-31-a9-e2-c1-c0-b9-28-a9-f0-e2-b6-8e-39-c0-11]
           zkifc-712   [001] ....   532.606684: i2c_result: i2c-1 n=1 ret=1
           zkifc-712   [001] ....   532.625447: i2c_write: i2c-1 #0 a=030 f=0000 l=596 [de-ad-be-ef-00-00-ff-ff-03-00-40-02-00-00-00-00-34-58-31-4d-9b-99-2b-95-84-ac-e6-8d-b6-69-c8-96-9c-2e-a7-9f-e3-32-da-f4-81-2b-b5-4f-be-6b-93-58-95-f8-18-ba-c1-c0-b9-28-a9-f0-e2-b6-8e-39-c0-11]
           zkifc-712   [001] ....   532.711491: i2c_result: i2c-1 n=1 ret=1
           zkifc-712   [001] ....   532.812082: i2c_write: i2c-1 #0 a=030 f=0000 l=596 [de-ad-be-ef-00-00-ff-ff-03-00-40-02-00-00-00-00-37-52-53-35-a9-2b-11-a2-b3-c4-33-f8-08-fe-6b-04-1e-b4-7d-7f-da-62-80-26-58-10-5e-f2-fb-f6-4b-0f-cc-59-5a-d6-c1-c0-b9-28-a9-f0-e2-b6-8e-39-c0-11]
           zkifc-712   [001] ....   533.085430: i2c_result: i2c-1 n=1 ret=1
           zkifc-712   [001] ....   533.152564: i2c_write: i2c-1 #0 a=030 f=0000 l=596 [de-ad-be-ef-00-00-ff-ff-03-00-40-02-00-00-00-00-4c-6e-78-69-cf-23-00-36-93-09-97-07-f3-24-13-f8-69-69-95-4e-99-e1-a9-cd-d9-0d-a0-19-38-6c-1a-f8-ae-77-81-da-c1-c0-b9-28-a9-f0-e2-b6-8e-39-c0-11]
           zkifc-712   [001] ....   533.206340: i2c_result: i2c-1 n=1 ret=1
           zkifc-712   [001] ....   533.271429: i2c_write: i2c-1 #0 a=030 f=0000 l=596 [de-ad-be-ef-00-00-ff-ff-03-00-40-02-00-00-00-00-75-4a-78-30-f2-c0-87-da-bb-97-db-64-74-73-c3-ad-70-09-9d-1e-8b-6e-2d-81-fb-da-4a-5d-27-06-74-f5-9f-a8-98-50-c1-c0-b9-28-a9-f0-e2-b6-8e-39-c0-11]
           zkifc-712   [001] ....   533.325204: i2c_result: i2c-1 n=1 ret=1
           zkifc-712   [001] ....   533.390406: i2c_write: i2c-1 #0 a=030 f=0000 l=596 [de-ad-be-ef-00-00-ff-ff-03-00-40-02-00-00-00-00-6c-42-34-70-9c-75-d5-39-3c-d1-0f-32-57-54-30-e9-81-6f-9a-67-ad-aa-b9-97-7f-2f-ea-ec-d9-07-1e-84-64-db-35-eb-c1-c0-b9-28-a9-f0-e2-b6-8e-39-c0-11]
           zkifc-712   [001] ....   533.444182: i2c_result: i2c-1 n=1 ret=1
           zkifc-712   [001] ....   533.509694: i2c_write: i2c-1 #0 a=030 f=0000 l=596 [de-ad-be-ef-00-00-ff-ff-03-00-40-02-00-00-00-00-58-37-55-72-b5-42-37-82-bb-9c-2d-fb-09-5d-d5-dc-3a-0b-e6-17-da-c7-6c-19-5d-ef-8c-40-25-18-29-2f-5b-a2-b6-df-c1-c0-b9-28-a9-f0-e2-b6-8e-39-c0-11]
           zkifc-712   [001] ....   533.563470: i2c_result: i2c-1 n=1 ret=1
           zkifc-712   [001] ....   533.628527: i2c_write: i2c-1 #0 a=030 f=0000 l=596 [de-ad-be-ef-00-00-ff-ff-03-00-40-02-00-00-00-00-6a-52-59-79-23-7f-78-87-be-9f-8a-d4-c0-2f-56-d9-bb-8b-25-37-3b-f4-fb-e5-4e-6e-23-cb-a4-6c-8e-01-85-f0-4a-57-c1-c0-b9-28-a9-f0-e2-b6-8e-39-c0-11]
           zkifc-712   [001] ....   533.682302: i2c_result: i2c-1 n=1 ret=1
           zkifc-712   [001] ....   533.748442: i2c_write: i2c-1 #0 a=030 f=0000 l=596 [de-ad-be-ef-00-00-ff-ff-03-00-40-02-00-00-00-00-44-38-74-4d-51-02-5f-5c-cd-3d-be-84-5b-be-1d-6f-3e-cb-ce-fc-d6-02-d9-f6-a1-99-41-c3-4e-75-5c-e9-ea-44-c8-e9-c1-c0-b9-28-a9-f0-e2-b6-8e-39-c0-11]
           zkifc-712   [001] ....   533.802217: i2c_result: i2c-1 n=1 ret=1
           zkifc-712   [001] ....   533.867497: i2c_write: i2c-1 #0 a=030 f=0000 l=596 [de-ad-be-ef-00-00-ff-ff-03-00-40-02-00-00-00-00-77-6a-4c-43-53-ff-0d-4f-c7-63-b6-27-8d-ef-fb-4c-ea-2f-29-d2-7c-98-e4-84-b8-42-45-d0-9d-7b-fc-76-51-6b-c5-b9-c1-c0-b9-28-a9-f0-e2-b6-8e-39-c0-11]
           zkifc-712   [001] ....   533.921273: i2c_result: i2c-1 n=1 ret=1
           zkifc-712   [001] ....   533.986491: i2c_write: i2c-1 #0 a=030 f=0000 l=596 [de-ad-be-ef-00-00-ff-ff-03-00-40-02-00-00-00-00-56-51-37-65-38-2c-e9-95-53-39-9f-4c-52-71-3a-17-d0-5a-ef-63-a7-d1-f8-8d-3f-d8-e9-a6-35-fa-cd-5e-fa-95-7e-18-c1-c0-b9-28-a9-f0-e2-b6-8e-39-c0-11]
           zkifc-712   [001] ....   534.040266: i2c_result: i2c-1 n=1 ret=1
           zkifc-712   [001] ....   534.105447: i2c_write: i2c-1 #0 a=030 f=0000 l=596 [de-ad-be-ef-00-00-ff-ff-03-00-40-02-00-00-00-00-43-50-38-2f-ac-4f-15-38-ca-a5-89-fe-e4-69-a6-05-8a-65-66-c2-ae-d0-ee-c8-19-6f-1d-c5-2a-78-43-0d-de-bc-d3-e4-c1-c0-b9-28-a9-f0-e2-b6-8e-39-c0-11]
           zkifc-712   [001] ....   534.159222: i2c_result: i2c-1 n=1 ret=1
           zkifc-712   [001] ....   534.224427: i2c_write: i2c-1 #0 a=030 f=0000 l=596 [de-ad-be-ef-00-00-ff-ff-03-00-40-02-00-00-00-00-54-47-72-75-b4-17-e7-27-46-43-88-d6-84-74-34-a9-8d-09-7d-f7-4e-dc-5d-de-f1-5a-2e-86-89-70-6b-10-06-5e-6f-06-c1-c0-b9-28-a9-f0-e2-b6-8e-39-c0-11]
           zkifc-712   [001] ....   534.278202: i2c_result: i2c-1 n=1 ret=1
           zkifc-712   [001] ....   534.343454: i2c_write: i2c-1 #0 a=030 f=0000 l=596 [de-ad-be-ef-00-00-ff-ff-03-00-40-02-00-00-00-00-4e-51-53-61-4f-56-a7-3e-d3-19-a5-2d-12-83-11-95-d3-2a-6e-03-6b-e3-2f-12-49-5e-65-ff-19-99-15-8c-2a-93-4a-b9-c1-c0-b9-28-a9-f0-e2-b6-8e-39-c0-11]
           zkifc-712   [001] ....   534.397229: i2c_result: i2c-1 n=1 ret=1
           zkifc-712   [001] ....   534.462461: i2c_write: i2c-1 #0 a=030 f=0000 l=596 [de-ad-be-ef-00-00-ff-ff-03-00-40-02-00-00-00-00-49-45-69-44-4c-b3-3b-7d-ab-d5-79-4f-9c-bc-ed-96-c3-96-56-e8-1a-86-3f-6e-d5-5e-04-01-74-b5-1d-4c-ff-44-1e-3b-c1-c0-b9-28-a9-f0-e2-b6-8e-39-c0-11]
           zkifc-712   [001] ....   534.516237: i2c_result: i2c-1 n=1 ret=1
           zkifc-712   [001] ....   534.581462: i2c_write: i2c-1 #0 a=030 f=0000 l=596 [de-ad-be-ef-00-00-ff-ff-03-00-40-02-00-00-00-00-70-32-35-39-7d-ac-48-77-fe-cc-ff-19-33-93-3e-74-7f-7d-f3-36-ea-52-b2-4a-3a-69-62-15-f0-d4-de-41-6f-eb-f7-2d-c1-c0-b9-28-a9-f0-e2-b6-8e-39-c0-11]
           zkifc-712   [001] ....   534.635239: i2c_result: i2c-1 n=1 ret=1
           zkifc-712   [001] ....   534.700502: i2c_write: i2c-1 #0 a=030 f=0000 l=596 [de-ad-be-ef-00-00-ff-ff-03-00-40-02-00-00-00-00-58-54-44-68-7b-f1-9b-73-83-58-e0-c3-7a-c9-49-b5-21-ba-8a-eb-6c-ab-1d-f9-35-21-87-ee-d6-fa-0f-d7-7f-14-be-2e-c1-c0-b9-28-a9-f0-e2-b6-8e-39-c0-11]
           zkifc-712   [001] ....   534.754277: i2c_result: i2c-1 n=1 ret=1
           zkifc-712   [001] ....   534.819463: i2c_write: i2c-1 #0 a=030 f=0000 l=596 [de-ad-be-ef-00-00-ff-ff-03-00-40-02-00-00-00-00-32-37-46-51-ef-49-dc-d1-3f-7e-e1-35-d3-11-72-fc-52-a1-a2-0a-82-99-1f-6f-cc-92-9a-62-9f-3b-05-ca-04-04-06-25-c1-c0-b9-28-a9-f0-e2-b6-8e-39-c0-11]
           zkifc-712   [001] ....   534.873238: i2c_result: i2c-1 n=1 ret=1
           zkifc-712   [001] ....   534.938556: i2c_write: i2c-1 #0 a=030 f=0000 l=596 [de-ad-be-ef-00-00-ff-ff-03-00-40-02-00-00-00-00-66-4f-67-53-54-2f-e2-8f-69-d3-b1-c0-c6-ea-ba-c0-c6-7e-d6-c5-75-da-90-67-47-3a-04-12-a0-6d-83-14-0d-66-df-a6-c1-c0-b9-28-a9-f0-e2-b6-8e-39-c0-11]
           zkifc-712   [001] ....   534.992340: i2c_result: i2c-1 n=1 ret=1
           zkifc-712   [001] ....   535.093324: i2c_write: i2c-1 #0 a=030 f=0000 l=596 [de-ad-be-ef-00-00-ff-ff-03-00-40-02-00-00-00-00-52-48-72-36-a2-77-ee-eb-a5-4e-e9-ca-43-a0-12-de-f9-c3-b0-bb-7a-88-98-64-68-25-e1-68-ed-37-5c-11-a9-1e-58-9f-c1-c0-b9-28-a9-f0-e2-b6-8e-39-c0-11]
           zkifc-712   [001] ....   535.179374: i2c_result: i2c-1 n=1 ret=1
           zkifc-712   [001] ....   535.279971: i2c_write: i2c-1 #0 a=030 f=0000 l=596 [de-ad-be-ef-00-00-ff-ff-03-00-40-02-00-00-00-00-4b-50-62-74-6a-c0-41-6a-53-69-26-cc-2a-8c-35-83-e1-08-0f-8b-88-7d-aa-54-93-3e-c4-29-99-eb-f4-e6-f7-48-f4-6d-c1-c0-b9-28-a9-f0-e2-b6-8e-39-c0-11]
           zkifc-712   [001] ....   535.366017: i2c_result: i2c-1 n=1 ret=1
           zkifc-712   [001] ....   535.466956: i2c_write: i2c-1 #0 a=030 f=0000 l=596 [de-ad-be-ef-00-00-ff-ff-03-00-40-02-00-00-00-00-2b-62-71-62-17-4d-02-91-f4-0a-f2-a3-12-8c-7c-48-da-ca-24-22-0b-a6-44-6f-c4-8a-77-ae-d4-6b-07-20-b7-18-82-a4-c1-c0-b9-28-a9-f0-e2-b6-8e-39-c0-11]
           zkifc-712   [001] ....   535.553007: i2c_result: i2c-1 n=1 ret=1
##### CPU 2 buffer started ####
           zkifc-712   [002] ....   535.667980: i2c_write: i2c-1 #0 a=030 f=0000 l=84 [de-ad-be-ef-00-00-ff-ff-03-00-40-00-00-00-00-00-64-15-80-75-9d-95-94-d3-dc-07-1a-51-0d-3b-cd-0a-67-70-3c-72-e5-85-d4-1a-03-bd-3b-f0-ca-57-38-b8-ad-3b-ca-de-c1-c0-b9-28-a9-f0-e2-b6-8e-39-c0-11]
           zkifc-712   [001] ....   536.260910: i2c_write: i2c-1 #0 a=030 f=0000 l=596 [de-ad-be-ef-00-00-ff-ff-03-00-40-02-00-00-00-00-47-46-30-56-8e-3e-3d-5e-f1-d5-81-fe-de-ce-73-33-69-62-4c-93-3f-be-f4-a2-96-e2-94-76-6e-57-e7-c4-55-e0-61-f9-c1-c0-b9-28-a9-f0-e2-b6-8e-39-c0-11]
           zkifc-712   [002] ....   543.993184: i2c_write: i2c-1 #0 a=030 f=0000 l=596 [de-ad-be-ef-00-00-ff-ff-03-00-40-02-00-00-00-00-2b-2f-74-6e-09-b7-48-1a-ab-4f-aa-d0-86-ba-14-18-48-d5-58-a9-c4-e8-d8-d7-8a-48-00-a1-70-bf-31-7a-09-0a-5c-8a-c1-c0-b9-28-a9-f0-e2-b6-8e-39-c0-11]
           zkifc-712   [002] ....   544.079241: i2c_result: i2c-1 n=1 ret=1
           zkifc-712   [002] ....   544.180364: i2c_write: i2c-1 #0 a=030 f=0000 l=596 [de-ad-be-ef-00-00-ff-ff-03-00-40-02-00-00-00-00-43-56-61-63-57-31-4b-b2-96-e1-a2-86-b7-90-f9-81-12-77-8b-a1-ec-da-72-70-da-34-82-9b-a3-eb-af-e1-d5-f8-a0-4e-c1-c0-b9-28-a9-f0-e2-b6-8e-39-c0-11]
           zkifc-712   [002] ....   544.266408: i2c_result: i2c-1 n=1 ret=1
           zkifc-711   [001] ....   546.952387: i2c_read: i2c-1 #0 a=030 f=0001 l=20
           zkifc-711   [001] ....   546.952615: i2c_result: i2c-1 n=0 ret=-5
           zkifc-712   [001] ....   547.245639: i2c_write: i2c-1 #0 a=030 f=0000 l=180 [de-ad-be-ef-00-00-ff-ff-03-00-a0-00-00-00-00-00-00-00-00-00-5d-54-d8-ad-4e-29-44-a7-48-52-18-21-89-2a-2a-0a-0b-3b-38-0c-9a-65-3b-be-7b-53-63-5c-52-10-f2-54-c1-c0-b9-28-a9-f0-e2-b6-8e-39-c0-11]
           zkifc-712   [001] ....   547.261980: i2c_result: i2c-1 n=1 ret=1
           zkifc-712   [001] ....   547.336040: i2c_write: i2c-1 #0 a=030 f=0000 l=612 [de-ad-be-ef-00-00-ff-ff-03-00-50-02-00-00-00-00-73-35-2f-6b-43-13-bc-3d-34-86-40-bb-bb-19-a7-53-88-28-10-15-b0-32-03-d7-11-7b-19-9a-d1-ac-28-c3-a7-8a-cd-d1-c1-c0-b9-28-a9-f0-e2-b6-8e-39-c0-11]
           zkifc-712   [001] ....   547.391253: i2c_result: i2c-1 n=1 ret=1
           zkifc-712   [001] ....   547.455440: i2c_write: i2c-1 #0 a=030 f=0000 l=612 [de-ad-be-ef-00-00-ff-ff-03-00-50-02-00-00-00-00-78-36-4b-43-9b-54-5a-e0-c5-fe-31-e3-58-0a-98-b8-31-11-46-0d-cc-21-83-06-01-df-4f-c8-19-ac-9a-ae-2e-c7-f0-f0-c1-c0-b9-28-a9-f0-e2-b6-8e-39-c0-11]
           zkifc-712   [001] ....   547.510656: i2c_result: i2c-1 n=1 ret=1
           zkifc-712   [001] ....   547.573840: i2c_write: i2c-1 #0 a=030 f=0000 l=84 [de-ad-be-ef-00-00-ff-ff-03-00-40-00-00-00-00-00-64-15-80-75-d7-7c-0d-ea-ba-57-52-d0-df-ad-19-45-0b-4d-0b-df-bc-fd-d7-0b-f9-65-1c-b8-22-11-f5-94-43-f5-09-36-c1-c0-b9-28-a9-f0-e2-b6-8e-39-c0-11]
           zkifc-712   [001] ....   547.581548: i2c_result: i2c-1 n=1 ret=1
           zkifc-712   [001] ....   547.593969: i2c_write: i2c-1 #0 a=030 f=0000 l=612 [de-ad-be-ef-00-00-ff-ff-03-00-50-02-00-00-00-00-6b-61-45-55-0a-4f-ee-c7-5f-d2-23-db-14-e3-d0-c0-be-6e-19-22-e8-a1-01-79-37-fd-a3-d8-ea-2c-1c-ba-7e-85-ef-f1-c1-c0-b9-28-a9-f0-e2-b6-8e-39-c0-11]
           zkifc-712   [001] ....   547.649184: i2c_result: i2c-1 n=1 ret=1
           zkifc-712   [001] ....   547.713528: i2c_write: i2c-1 #0 a=030 f=0000 l=612 [de-ad-be-ef-00-00-ff-ff-03-00-50-02-00-00-00-00-43-30-30-41-4a-62-39-32-a2-bc-ef-d8-05-66-fa-50-32-a7-81-db-2a-c9-f8-af-25-dc-80-9f-d7-cb-f3-c6-52-b0-2b-3e-c1-c0-b9-28-a9-f0-e2-b6-8e-39-c0-11]
           zkifc-712   [001] ....   547.768743: i2c_result: i2c-1 n=1 ret=1
           zkifc-712   [001] ....   547.832549: i2c_write: i2c-1 #0 a=030 f=0000 l=612 [de-ad-be-ef-00-00-ff-ff-03-00-50-02-00-00-00-00-7a-70-4b-2f-d4-fe-53-58-f7-ca-ae-b0-3a-4c-4b-04-41-bb-41-34-67-45-d1-25-1d-2a-c8-2c-73-09-09-94-8c-22-ad-06-c1-c0-b9-28-a9-f0-e2-b6-8e-39-c0-11]
           zkifc-712   [001] ....   547.887764: i2c_result: i2c-1 n=1 ret=1
           zkifc-712   [001] ....   547.951484: i2c_write: i2c-1 #0 a=030 f=0000 l=612 [de-ad-be-ef-00-00-ff-ff-03-00-50-02-00-00-00-00-37-41-34-53-3d-ba-85-d9-05-19-06-86-86-33-cb-da-20-35-d1-c0-13-e9-4c-6c-61-a1-0d-89-32-de-33-08-df-1e-f3-cf-c1-c0-b9-28-a9-f0-e2-b6-8e-39-c0-11]
           zkifc-712   [001] ....   548.006698: i2c_result: i2c-1 n=1 ret=1
           zkifc-712   [001] ....   548.070438: i2c_write: i2c-1 #0 a=030 f=0000 l=612 [de-ad-be-ef-00-00-ff-ff-03-00-50-02-00-00-00-00-48-45-5a-58-43-81-91-c7-93-da-a7-25-7d-6d-34-20-cb-e0-53-e7-97-84-8b-d0-fc-a4-cf-e6-d5-64-28-ec-8e-55-2c-07-c1-c0-b9-28-a9-f0-e2-b6-8e-39-c0-11]
           zkifc-712   [001] ....   548.125654: i2c_result: i2c-1 n=1 ret=1
           zkifc-712   [001] ....   548.189474: i2c_write: i2c-1 #0 a=030 f=0000 l=612 [de-ad-be-ef-00-00-ff-ff-03-00-50-02-00-00-00-00-52-4e-70-6a-72-15-4d-02-9e-56-bd-05-7d-f4-9b-70-9e-59-03-46-31-d5-c6-06-40-c6-52-75-bf-14-b7-82-cc-27-9a-dd-c1-c0-b9-28-a9-f0-e2-b6-8e-39-c0-11]
           zkifc-712   [001] ....   548.244691: i2c_result: i2c-1 n=1 ret=1
           zkifc-712   [001] ....   548.308486: i2c_write: i2c-1 #0 a=030 f=0000 l=612 [de-ad-be-ef-00-00-ff-ff-03-00-50-02-00-00-00-00-4e-54-79-39-fa-41-55-84-4d-0f-e1-09-bf-db-f9-4e-b4-6b-8f-21-cb-bc-e8-5f-1e-21-30-f8-af-db-9e-b8-c6-7d-e3-5f-c1-c0-b9-28-a9-f0-e2-b6-8e-39-c0-11]
           zkifc-712   [001] ....   548.363702: i2c_result: i2c-1 n=1 ret=1
           zkifc-712   [001] ....   548.427444: i2c_write: i2c-1 #0 a=030 f=0000 l=612 [de-ad-be-ef-00-00-ff-ff-03-00-50-02-00-00-00-00-6a-72-53-2f-dc-41-18-74-09-46-b3-05-9b-78-8f-9e-8d-45-c6-b9-2c-0f-46-9f-a7-a4-0d-85-76-dc-39-cb-d1-1f-5a-8d-c1-c0-b9-28-a9-f0-e2-b6-8e-39-c0-11]
           zkifc-712   [001] ....   548.482662: i2c_result: i2c-1 n=1 ret=1
           zkifc-712   [001] ....   548.546564: i2c_write: i2c-1 #0 a=030 f=0000 l=612 [de-ad-be-ef-00-00-ff-ff-03-00-50-02-00-00-00-00-73-6b-34-32-cb-54-d3-e0-76-67-e4-0f-80-fd-8b-92-b5-fd-44-cb-9f-1e-d0-91-4e-b0-7e-b8-77-4d-f2-a1-7c-d0-e7-79-c1-c0-b9-28-a9-f0-e2-b6-8e-39-c0-11]
           zkifc-712   [001] ....   548.601779: i2c_result: i2c-1 n=1 ret=1
           zkifc-712   [001] ....   548.665482: i2c_write: i2c-1 #0 a=030 f=0000 l=612 [de-ad-be-ef-00-00-ff-ff-03-00-50-02-00-00-00-00-7a-50-33-42-c5-51-5e-ec-12-dc-9f-d9-d1-bc-96-15-f9-0c-45-1c-8a-91-73-a7-86-aa-c5-8d-ae-10-3b-51-14-e6-2b-08-c1-c0-b9-28-a9-f0-e2-b6-8e-39-c0-11]
           zkifc-712   [001] ....   548.720696: i2c_result: i2c-1 n=1 ret=1
           zkifc-712   [001] ....   548.784401: i2c_write: i2c-1 #0 a=030 f=0000 l=612 [de-ad-be-ef-00-00-ff-ff-03-00-50-02-00-00-00-00-37-55-6c-4d-5f-fc-46-f5-10-03-33-ec-78-b0-98-47-9d-3b-2d-91-f7-ee-06-10-9d-94-c3-19-5c-3d-67-b6-85-cd-d8-a2-c1-c0-b9-28-a9-f0-e2-b6-8e-39-c0-11]
           zkifc-712   [001] ....   548.839615: i2c_result: i2c-1 n=1 ret=1
           zkifc-712   [001] ....   548.903529: i2c_write: i2c-1 #0 a=030 f=0000 l=612 [de-ad-be-ef-00-00-ff-ff-03-00-50-02-00-00-00-00-44-6e-33-56-36-8e-f7-24-a4-c9-80-c8-33-08-36-8b-ad-93-c8-be-7d-79-1d-62-c5-45-9e-cc-7b-d8-24-3e-1b-31-f9-9a-c1-c0-b9-28-a9-f0-e2-b6-8e-39-c0-11]
           zkifc-712   [001] ....   548.958744: i2c_result: i2c-1 n=1 ret=1
           zkifc-712   [001] ....   549.022520: i2c_write: i2c-1 #0 a=030 f=0000 l=612 [de-ad-be-ef-00-00-ff-ff-03-00-50-02-00-00-00-00-53-49-4f-74-ed-d5-7d-7d-11-49-57-07-5b-b3-63-a3-f9-42-f8-fa-68-0a-5c-ba-53-3f-9d-04-23-dd-b0-bc-f1-3d-f8-ed-c1-c0-b9-28-a9-f0-e2-b6-8e-39-c0-11]
           zkifc-712   [002] ....   550.725047: i2c_write: i2c-1 #0 a=030 f=0000 l=84 [de-ad-be-ef-00-00-ff-ff-03-00-40-00-00-00-00-00-64-15-80-75-13-f9-80-f8-7a-69-b9-df-27-0a-26-e1-97-89-8b-25-0e-f5-db-fa-f8-c2-b7-34-4b-03-d5-5f-55-b5-45-3b-c1-c0-b9-28-a9-f0-e2-b6-8e-39-c0-11]
           zkifc-712   [002] ....   550.737374: i2c_result: i2c-1 n=1 ret=1
##### CPU 3 buffer started ####
           zkifc-712   [003] ....   554.903441: i2c_write: i2c-1 #0 a=030 f=0000 l=612 [de-ad-be-ef-00-00-ff-ff-03-00-50-02-00-00-00-00-74-49-4d-4a-b7-0e-71-c6-5f-de-75-6a-f7-40-d1-0c-25-27-3a-e8-9e-56-e2-62-13-d7-e3-74-48-88-33-65-be-d5-92-c4-c1-c0-b9-28-a9-f0-e2-b6-8e-39-c0-11]
           zkifc-712   [003] ....   554.991795: i2c_result: i2c-1 n=1 ret=1
           zkifc-712   [002] ....   555.091338: i2c_write: i2c-1 #0 a=030 f=0000 l=612 [de-ad-be-ef-00-00-ff-ff-03-00-50-02-00-00-00-00-45-62-37-67-bd-4c-fb-48-e7-a2-ed-21-d2-17-e7-84-3a-b0-80-fb-09-b3-9f-0b-af-f1-e2-63-79-7b-fa-1d-96-d5-74-b7-c1-c0-b9-28-a9-f0-e2-b6-8e-39-c0-11]
##### CPU 0 buffer started ####
           zkifc-712   [000] ....   556.478805: i2c_write: i2c-1 #0 a=030 f=0000 l=612 [de-ad-be-ef-00-00-ff-ff-03-00-50-02-00-00-00-00-76-6b-44-7a-b6-57-8c-87-76-c3-b4-db-c4-8a-9c-22-23-40-49-dd-39-37-5f-0d-d8-0c-f7-87-15-a1-69-2d-f8-63-60-a1-c1-c0-b9-28-a9-f0-e2-b6-8e-39-c0-11]
           zkifc-712   [000] ....   556.534019: i2c_result: i2c-1 n=1 ret=1
           zkifc-711   [000] ....   556.540959: i2c_read: i2c-1 #0 a=030 f=0001 l=20
           zkifc-711   [000] ....   556.542889: i2c_reply: i2c-1 #0 a=030 f=0001 l=20 [de-ad-be-ef-00-00-ff-ff-00-01-40-02-00-00-00-00-76-6b-fb-cc]
           zkifc-711   [000] ....   556.542891: i2c_result: i2c-1 n=1 ret=1
           zkifc-711   [000] ....   556.542895: i2c_read: i2c-1 #0 a=030 f=0001 l=596
           zkifc-711   [000] ....   556.596668: i2c_reply: i2c-1 #0 a=030 f=0001 l=596 [de-ad-be-ef-00-00-ff-ff-00-01-40-02-00-00-00-00-76-6b-fb-cc-56-70-32-38-6f-d1-f7-09-19-66-7f-d1-d8-ef-20-3a-1b-42-b7-d4-90-02-e8-b3-81-91-e7-48-06-b7-37-62-3e-3f-46-d7-56-0f-1d-49-71-c6-3f-ee]
           zkifc-711   [000] ....   556.596669: i2c_result: i2c-1 n=1 ret=1
           zkifc-711   [000] ....   556.596777: i2c_read: i2c-1 #0 a=030 f=0001 l=20
           zkifc-711   [000] ....   556.596905: i2c_result: i2c-1 n=0 ret=-5
           zkifc-712   [000] ....   556.597576: i2c_write: i2c-1 #0 a=030 f=0000 l=84 [de-ad-be-ef-00-00-ff-ff-03-00-40-00-00-00-00-00-64-15-80-75-3a-4e-1f-c9-b4-04-dc-49-54-f7-23-ec-03-e1-4c-e7-83-19-82-f3-d8-ad-d2-52-78-b5-ed-98-5f-a6-a4-5e-c1-c0-b9-28-a9-f0-e2-b6-8e-39-c0-11]
           zkifc-712   [000] ....   556.605268: i2c_result: i2c-1 n=1 ret=1
           zkifc-711   [000] ....   556.607964: i2c_read: i2c-1 #0 a=030 f=0001 l=20
           zkifc-711   [000] ....   556.609894: i2c_reply: i2c-1 #0 a=030 f=0001 l=20 [de-ad-be-ef-00-00-ff-ff-00-01-40-00-00-00-00-00-64-15-b8-cc]
           zkifc-711   [000] ....   556.609895: i2c_result: i2c-1 n=1 ret=1
           zkifc-711   [000] ....   556.609899: i2c_read: i2c-1 #0 a=030 f=0001 l=84
           zkifc-711   [000] ....   556.617586: i2c_reply: i2c-1 #0 a=030 f=0001 l=84 [de-ad-be-ef-00-00-ff-ff-00-01-40-00-00-00-00-00-64-15-b8-cc-94-0f-59-9f-69-4f-f4-01-5e-a1-0d-a8-84-37-ab-e8-d0-35-82-da-ae-ed-d5-7c-38-ee-70-e1-45-21-94-29-3e-3f-46-d7-56-0f-1d-49-71-c6-3f-ee]
           zkifc-711   [000] ....   556.617587: i2c_result: i2c-1 n=1 ret=1
           zkifc-711   [000] ....   556.617663: i2c_read: i2c-1 #0 a=030 f=0001 l=20
           zkifc-711   [000] ....   556.617792: i2c_result: i2c-1 n=0 ret=-5
           zkifc-712   [000] ....   556.618134: i2c_write: i2c-1 #0 a=030 f=0000 l=612 [de-ad-be-ef-00-00-ff-ff-03-00-50-02-00-00-00-00-68-2b-54-43-77-65-28-54-e1-f5-80-3f-ea-21-86-b4-13-72-ae-5b-18-1b-71-f9-64-c9-5b-d3-8a-78-9b-a3-f4-51-f6-44-c1-c0-b9-28-a9-f0-e2-b6-8e-39-c0-11]
           zkifc-712   [000] ....   556.673351: i2c_result: i2c-1 n=1 ret=1
           zkifc-711   [000] ....   556.679960: i2c_read: i2c-1 #0 a=030 f=0001 l=20
           zkifc-711   [000] ....   556.681888: i2c_reply: i2c-1 #0 a=030 f=0001 l=20 [de-ad-be-ef-00-00-ff-ff-00-01-40-02-00-00-00-00-68-2b-70-cc]
           zkifc-711   [000] ....   556.681889: i2c_result: i2c-1 n=1 ret=1
           zkifc-711   [000] ....   556.681893: i2c_read: i2c-1 #0 a=030 f=0001 l=596
           zkifc-711   [000] ....   556.735666: i2c_reply: i2c-1 #0 a=030 f=0001 l=596 [de-ad-be-ef-00-00-ff-ff-00-01-40-02-00-00-00-00-68-2b-70-cc-08-9e-d7-80-c8-ea-17-5a-26-26-e6-7e-80-ec-ae-2a-12-f6-d9-21-9b-d5-c3-10-95-25-82-72-37-86-a9-e9-3e-3f-46-d7-56-0f-1d-49-71-c6-3f-ee]
           zkifc-711   [000] ....   556.735667: i2c_result: i2c-1 n=1 ret=1
           zkifc-711   [000] ....   556.735787: i2c_read: i2c-1 #0 a=030 f=0001 l=20
           zkifc-711   [000] ....   556.735915: i2c_result: i2c-1 n=0 ret=-5
           zkifc-712   [000] ....   556.736863: i2c_write: i2c-1 #0 a=030 f=0000 l=612 [de-ad-be-ef-00-00-ff-ff-03-00-50-02-00-00-00-00-79-32-74-69-26-38-43-f8-e7-d8-30-18-aa-53-42-71-9d-ec-34-7a-35-6e-a7-53-b5-25-f1-8e-fb-75-1e-57-69-18-26-b6-c1-c0-b9-28-a9-f0-e2-b6-8e-39-c0-11]
           zkifc-712   [000] ....   556.792078: i2c_result: i2c-1 n=1 ret=1
           zkifc-711   [000] ....   556.798987: i2c_read: i2c-1 #0 a=030 f=0001 l=20
           zkifc-711   [000] ....   556.800919: i2c_reply: i2c-1 #0 a=030 f=0001 l=20 [de-ad-be-ef-00-00-ff-ff-00-01-40-02-00-00-00-00-79-32-f9-cb]
           zkifc-711   [000] ....   556.800921: i2c_result: i2c-1 n=1 ret=1
           zkifc-711   [000] ....   556.800926: i2c_read: i2c-1 #0 a=030 f=0001 l=596
           zkifc-711   [000] ....   556.854699: i2c_reply: i2c-1 #0 a=030 f=0001 l=596 [de-ad-be-ef-00-00-ff-ff-00-01-40-02-00-00-00-00-79-32-f9-cb-24-f1-fa-10-84-66-39-bd-05-8d-b3-55-74-d5-bb-4e-01-82-d8-61-4f-b9-67-db-03-89-fc-07-ae-61-73-88-3e-3f-46-d7-56-0f-1d-49-71-c6-3f-ee]
           zkifc-711   [000] ....   556.854700: i2c_result: i2c-1 n=1 ret=1
           zkifc-711   [000] ....   556.854816: i2c_read: i2c-1 #0 a=030 f=0001 l=20
           zkifc-711   [000] ....   556.854944: i2c_result: i2c-1 n=0 ret=-5
           zkifc-712   [000] ....   556.855945: i2c_write: i2c-1 #0 a=030 f=0000 l=612 [de-ad-be-ef-00-00-ff-ff-03-00-50-02-00-00-00-00-52-70-6e-77-85-3d-64-02-15-cb-ec-68-b9-98-3c-df-51-0f-39-06-87-cb-d9-6e-19-57-fe-f7-6e-8b-b1-ad-ef-1c-01-a3-c1-c0-b9-28-a9-f0-e2-b6-8e-39-c0-11]
           zkifc-712   [000] ....   556.911159: i2c_result: i2c-1 n=1 ret=1
           zkifc-711   [000] ....   556.917982: i2c_read: i2c-1 #0 a=030 f=0001 l=20
           zkifc-711   [000] ....   556.919912: i2c_reply: i2c-1 #0 a=030 f=0001 l=20 [de-ad-be-ef-00-00-ff-ff-00-01-40-02-00-00-00-00-52-70-82-cb]
           zkifc-711   [000] ....   556.919914: i2c_result: i2c-1 n=1 ret=1
           zkifc-711   [000] ....   556.919917: i2c_read: i2c-1 #0 a=030 f=0001 l=596
           zkifc-711   [000] ....   556.973694: i2c_reply: i2c-1 #0 a=030 f=0001 l=596 [de-ad-be-ef-00-00-ff-ff-00-01-40-02-00-00-00-00-52-70-82-cb-40-d0-51-25-ad-e1-2e-fe-1b-cc-f8-0b-66-e1-8e-3c-c4-b2-56-71-52-59-d2-7c-54-e9-e6-6f-46-30-d3-6b-3e-3f-46-d7-56-0f-1d-49-71-c6-3f-ee]
           zkifc-711   [000] ....   556.973700: i2c_result: i2c-1 n=1 ret=1
           zkifc-711   [000] ....   556.973909: i2c_read: i2c-1 #0 a=030 f=0001 l=20
           zkifc-711   [000] ....   556.974038: i2c_result: i2c-1 n=0 ret=-5
           zkifc-712   [000] ....   556.975120: i2c_write: i2c-1 #0 a=030 f=0000 l=612 [de-ad-be-ef-00-00-ff-ff-03-00-50-02-00-00-00-00-4e-4a-75-69-03-3a-6f-af-3a-d7-fa-b2-e4-4b-5f-ec-34-75-74-91-1c-6e-c9-b1-4a-14-2f-dd-23-b7-4e-7c-dd-eb-bb-65-c1-c0-b9-28-a9-f0-e2-b6-8e-39-c0-11]
           zkifc-712   [000] ....   557.030343: i2c_result: i2c-1 n=1 ret=1
           zkifc-711   [000] ....   557.037056: i2c_read: i2c-1 #0 a=030 f=0001 l=20
           zkifc-711   [000] ....   557.039007: i2c_reply: i2c-1 #0 a=030 f=0001 l=20 [de-ad-be-ef-00-00-ff-ff-00-01-40-02-00-00-00-00-4e-4a-0b-cb]
           zkifc-711   [000] ....   557.039009: i2c_result: i2c-1 n=1 ret=1
           zkifc-711   [000] ....   557.039014: i2c_read: i2c-1 #0 a=030 f=0001 l=596
           zkifc-711   [000] ....   557.092797: i2c_reply: i2c-1 #0 a=030 f=0001 l=596 [de-ad-be-ef-00-00-ff-ff-00-01-40-02-00-00-00-00-4e-4a-0b-cb-a6-ae-fa-fc-96-34-51-35-fb-db-3e-b0-9c-14-3f-34-f1-45-83-1e-2e-91-40-f1-1d-87-6b-19-b8-bf-0f-6f-3e-3f-46-d7-56-0f-1d-49-71-c6-3f-ee]
           zkifc-711   [000] ....   557.092804: i2c_result: i2c-1 n=1 ret=1
           zkifc-711   [000] ....   557.093032: i2c_read: i2c-1 #0 a=030 f=0001 l=20
           zkifc-711   [000] ....   557.093165: i2c_result: i2c-1 n=0 ret=-5
           zkifc-712   [000] ....   557.094259: i2c_write: i2c-1 #0 a=030 f=0000 l=612 [de-ad-be-ef-00-00-ff-ff-03-00-50-02-00-00-00-00-30-46-71-4f-ac-4b-ae-a5-21-0b-9d-f7-46-6c-48-eb-b8-67-ef-39-b1-18-35-45-59-7c-2a-09-79-ef-37-b1-91-25-a0-67-c1-c0-b9-28-a9-f0-e2-b6-8e-39-c0-11]
           zkifc-712   [000] ....   557.149480: i2c_result: i2c-1 n=1 ret=1
           zkifc-711   [000] ....   557.156048: i2c_read: i2c-1 #0 a=030 f=0001 l=20
           zkifc-711   [000] .n..   557.157986: i2c_reply: i2c-1 #0 a=030 f=0001 l=20 [de-ad-be-ef-00-00-ff-ff-00-01-40-02-00-00-00-00-30-46-94-ca]
           zkifc-711   [000] .n..   557.157987: i2c_result: i2c-1 n=1 ret=1
           zkifc-711   [000] ....   557.158000: i2c_read: i2c-1 #0 a=030 f=0001 l=596
           zkifc-711   [000] ....   557.211791: i2c_reply: i2c-1 #0 a=030 f=0001 l=596 [de-ad-be-ef-00-00-ff-ff-00-01-40-02-00-00-00-00-30-46-94-ca-0b-c0-8d-35-e8-31-e6-32-ea-b1-f8-f9-b4-bb-e2-f8-e4-2e-4c-f1-5d-dc-e2-f3-6f-55-dd-f5-dd-b0-10-cf-3e-3f-46-d7-56-0f-1d-49-71-c6-3f-ee]
           zkifc-711   [000] ....   557.211798: i2c_result: i2c-1 n=1 ret=1
           zkifc-711   [000] ....   557.212193: i2c_read: i2c-1 #0 a=030 f=0001 l=20
           zkifc-711   [000] ....   557.212326: i2c_result: i2c-1 n=0 ret=-5
           zkifc-712   [000] ....   557.213562: i2c_write: i2c-1 #0 a=030 f=0000 l=612 [de-ad-be-ef-00-00-ff-ff-03-00-50-02-00-00-00-00-45-48-62-68-73-3a-00-ff-bb-b2-2f-9f-c0-e2-9f-47-de-0a-d2-58-9a-62-5f-5c-ae-b5-66-6b-ea-94-c9-a2-64-cd-03-fd-c1-c0-b9-28-a9-f0-e2-b6-8e-39-c0-11]
           zkifc-712   [000] ....   557.268795: i2c_result: i2c-1 n=1 ret=1
           zkifc-711   [000] ....   557.276143: i2c_read: i2c-1 #0 a=030 f=0001 l=20
           zkifc-711   [000] ....   557.278095: i2c_reply: i2c-1 #0 a=030 f=0001 l=20 [de-ad-be-ef-00-00-ff-ff-00-01-40-02-00-00-00-00-45-48-1c-ca]
           zkifc-711   [000] ....   557.278102: i2c_result: i2c-1 n=1 ret=1
           zkifc-711   [000] ....   557.278110: i2c_read: i2c-1 #0 a=030 f=0001 l=596
           zkifc-711   [000] ....   557.331890: i2c_reply: i2c-1 #0 a=030 f=0001 l=596 [de-ad-be-ef-00-00-ff-ff-00-01-40-02-00-00-00-00-45-48-1c-ca-50-44-22-58-38-95-06-a8-3c-01-cf-7d-43-a2-a4-f1-b5-92-3a-3b-e4-02-bf-8d-f4-a9-dd-6d-67-09-9d-eb-3e-3f-46-d7-56-0f-1d-49-71-c6-3f-ee]
           zkifc-711   [000] ....   557.331896: i2c_result: i2c-1 n=1 ret=1
           zkifc-711   [000] ....   557.332114: i2c_read: i2c-1 #0 a=030 f=0001 l=20
           zkifc-711   [000] ....   557.332246: i2c_result: i2c-1 n=0 ret=-5
           zkifc-712   [000] ....   557.333426: i2c_write: i2c-1 #0 a=030 f=0000 l=612 [de-ad-be-ef-00-00-ff-ff-03-00-50-02-00-00-00-00-45-36-56-51-ff-36-e7-ff-01-5c-55-aa-9f-8c-d9-a7-64-da-6d-81-c7-d3-83-1f-39-55-cb-97-98-8b-bc-d6-a8-15-0e-41-c1-c0-b9-28-a9-f0-e2-b6-8e-39-c0-11]
           zkifc-712   [000] ....   557.388651: i2c_result: i2c-1 n=1 ret=1
           zkifc-711   [000] ....   557.396061: i2c_read: i2c-1 #0 a=030 f=0001 l=20
           zkifc-711   [000] ....   557.397997: i2c_reply: i2c-1 #0 a=030 f=0001 l=20 [de-ad-be-ef-00-00-ff-ff-00-01-40-02-00-00-00-00-45-36-a4-c9]
           zkifc-711   [000] ....   557.397999: i2c_result: i2c-1 n=1 ret=1
           zkifc-711   [000] ....   557.398005: i2c_read: i2c-1 #0 a=030 f=0001 l=596
           zkifc-711   [000] ....   557.451789: i2c_reply: i2c-1 #0 a=030 f=0001 l=596 [de-ad-be-ef-00-00-ff-ff-00-01-40-02-00-00-00-00-45-36-a4-c9-de-12-a0-dd-8a-e9-08-43-6b-ac-69-24-65-0a-44-5c-63-f2-19-fe-ed-bb-2e-1c-67-4e-ec-28-11-f6-8f-2b-3e-3f-46-d7-56-0f-1d-49-71-c6-3f-ee]
           zkifc-711   [000] ....   557.451794: i2c_result: i2c-1 n=1 ret=1
           zkifc-711   [000] ....   557.452105: i2c_read: i2c-1 #0 a=030 f=0001 l=20
           zkifc-711   [000] ....   557.452238: i2c_result: i2c-1 n=0 ret=-5
           zkifc-712   [000] ....   557.453418: i2c_write: i2c-1 #0 a=030 f=0000 l=612 [de-ad-be-ef-00-00-ff-ff-03-00-50-02-00-00-00-00-6e-38-35-33-b8-3c-91-06-09-82-aa-d1-95-dc-1b-f7-29-b3-82-c8-19-79-ce-79-9d-ba-f5-43-54-25-61-cd-55-74-dd-37-c1-c0-b9-28-a9-f0-e2-b6-8e-39-c0-11]
           zkifc-712   [000] ....   557.508642: i2c_result: i2c-1 n=1 ret=1
           zkifc-711   [000] ....   557.516212: i2c_read: i2c-1 #0 a=030 f=0001 l=20
           zkifc-711   [000] ....   557.518165: i2c_reply: i2c-1 #0 a=030 f=0001 l=20 [de-ad-be-ef-00-00-ff-ff-00-01-40-02-00-00-00-00-6e-38-2c-c9]
           zkifc-711   [000] ....   557.518170: i2c_result: i2c-1 n=1 ret=1
           zkifc-711   [000] ....   557.518185: i2c_read: i2c-1 #0 a=030 f=0001 l=596
           zkifc-711   [000] ....   557.571987: i2c_reply: i2c-1 #0 a=030 f=0001 l=596 [de-ad-be-ef-00-00-ff-ff-00-01-40-02-00-00-00-00-6e-38-2c-c9-b5-42-f1-f2-4a-d8-eb-e1-7a-51-e4-e9-d1-5b-b5-87-f7-5c-e9-cb-4f-b9-be-db-a0-3a-2d-99-28-89-9a-a5-3e-3f-46-d7-56-0f-1d-49-71-c6-3f-ee]
           zkifc-711   [000] ....   557.571994: i2c_result: i2c-1 n=1 ret=1
           zkifc-711   [000] ....   557.572227: i2c_read: i2c-1 #0 a=030 f=0001 l=20
           zkifc-711   [000] ....   557.572405: i2c_result: i2c-1 n=0 ret=-5
           zkifc-712   [000] ....   557.573623: i2c_write: i2c-1 #0 a=030 f=0000 l=612 [de-ad-be-ef-00-00-ff-ff-03-00-50-02-00-00-00-00-71-6a-52-61-38-a6-cf-8c-e6-fe-46-77-d0-a9-f1-ab-a9-86-5e-ce-ba-b3-6f-26-e5-88-79-8c-f1-8d-8a-3c-38-ff-65-59-c1-c0-b9-28-a9-f0-e2-b6-8e-39-c0-11]
           zkifc-712   [000] ....   557.628851: i2c_result: i2c-1 n=1 ret=1
           zkifc-711   [000] ....   557.636072: i2c_read: i2c-1 #0 a=030 f=0001 l=20
           zkifc-711   [000] ....   557.638011: i2c_reply: i2c-1 #0 a=030 f=0001 l=20 [de-ad-be-ef-00-00-ff-ff-00-01-40-02-00-00-00-00-71-6a-b4-c8]
           zkifc-711   [000] ....   557.638012: i2c_result: i2c-1 n=1 ret=1
           zkifc-711   [000] ....   557.638017: i2c_read: i2c-1 #0 a=030 f=0001 l=596
           zkifc-711   [000] ....   557.691789: i2c_reply: i2c-1 #0 a=030 f=0001 l=596 [de-ad-be-ef-00-00-ff-ff-00-01-40-02-00-00-00-00-71-6a-b4-c8-44-61-e0-1c-48-ba-5a-42-15-51-b2-0b-d3-13-d0-ce-1b-8b-bd-81-f3-d3-82-1c-66-94-c9-b5-10-c9-cb-2b-3e-3f-46-d7-56-0f-1d-49-71-c6-3f-ee]
           zkifc-711   [000] ....   557.691790: i2c_result: i2c-1 n=1 ret=1
           zkifc-711   [000] ....   557.691982: i2c_read: i2c-1 #0 a=030 f=0001 l=20
           zkifc-711   [000] ....   557.692478: i2c_result: i2c-1 n=0 ret=-5
           zkifc-712   [000] ....   557.693628: i2c_write: i2c-1 #0 a=030 f=0000 l=612 [de-ad-be-ef-00-00-ff-ff-03-00-50-02-00-00-00-00-71-31-4a-33-d7-17-26-9b-b2-c0-e8-ff-82-4d-81-85-8d-ed-61-3a-84-91-4c-f9-d7-72-79-19-e9-70-d2-a1-ad-3c-68-f1-c1-c0-b9-28-a9-f0-e2-b6-8e-39-c0-11]
           zkifc-712   [000] ....   557.748844: i2c_result: i2c-1 n=1 ret=1
           zkifc-711   [000] ....   557.756038: i2c_read: i2c-1 #0 a=030 f=0001 l=20
           zkifc-711   [000] ....   557.757968: i2c_reply: i2c-1 #0 a=030 f=0001 l=20 [de-ad-be-ef-00-00-ff-ff-00-01-40-02-00-00-00-00-71-31-3c-c8]
           zkifc-711   [000] ....   557.757970: i2c_result: i2c-1 n=1 ret=1
           zkifc-711   [000] ....   557.757974: i2c_read: i2c-1 #0 a=030 f=0001 l=596
           zkifc-711   [000] ....   557.811746: i2c_reply: i2c-1 #0 a=030 f=0001 l=596 [de-ad-be-ef-00-00-ff-ff-00-01-40-02-00-00-00-00-71-31-3c-c8-32-9c-90-7e-28-e9-d8-42-2e-7e-4f-04-f6-a0-29-ea-9c-17-07-a1-1e-1f-9b-42-f6-02-37-bf-0e-27-fc-e8-3e-3f-46-d7-56-0f-1d-49-71-c6-3f-ee]
           zkifc-711   [000] ....   557.811748: i2c_result: i2c-1 n=1 ret=1
           zkifc-711   [000] ....   557.811887: i2c_read: i2c-1 #0 a=030 f=0001 l=20
           zkifc-711   [000] ....   557.812016: i2c_result: i2c-1 n=0 ret=-5
           zkifc-712   [000] ....   557.813107: i2c_write: i2c-1 #0 a=030 f=0000 l=612 [de-ad-be-ef-00-00-ff-ff-03-00-50-02-00-00-00-00-50-63-36-36-af-90-0d-94-f4-6e-1e-dd-85-7b-1f-60-30-a1-36-77-bf-0e-81-86-e5-d9-f9-df-08-03-b0-3a-5a-ff-3b-be-c1-c0-b9-28-a9-f0-e2-b6-8e-39-c0-11]
           zkifc-712   [000] ....   557.868359: i2c_result: i2c-1 n=1 ret=1
           zkifc-711   [000] ....   557.875101: i2c_read: i2c-1 #0 a=030 f=0001 l=20
           zkifc-711   [000] ....   557.877042: i2c_reply: i2c-1 #0 a=030 f=0001 l=20 [de-ad-be-ef-00-00-ff-ff-00-01-40-02-00-00-00-00-50-63-c5-c7]
           zkifc-711   [000] ....   557.877044: i2c_result: i2c-1 n=1 ret=1
           zkifc-711   [000] ....   557.877049: i2c_read: i2c-1 #0 a=030 f=0001 l=596
           zkifc-711   [000] ....   557.930860: i2c_reply: i2c-1 #0 a=030 f=0001 l=596 [de-ad-be-ef-00-00-ff-ff-00-01-40-02-00-00-00-00-50-63-c5-c7-aa-0e-0d-2a-b2-e5-2b-1f-02-1a-4f-c4-12-0e-ef-07-de-e1-a0-77-14-6d-89-69-46-3b-a6-09-71-65-4c-e5-3e-3f-46-d7-56-0f-1d-49-71-c6-3f-ee]
           zkifc-711   [000] ....   557.930868: i2c_result: i2c-1 n=1 ret=1
           zkifc-711   [000] ....   557.931120: i2c_read: i2c-1 #0 a=030 f=0001 l=20
           zkifc-711   [000] ....   557.931252: i2c_result: i2c-1 n=0 ret=-5
           zkifc-712   [000] ....   557.932576: i2c_write: i2c-1 #0 a=030 f=0000 l=612 [de-ad-be-ef-00-00-ff-ff-03-00-50-02-00-00-00-00-4a-6d-43-47-2b-09-b6-ac-ab-5e-95-98-65-b7-2d-78-db-28-0e-ee-b2-4a-75-f7-81-78-46-53-5e-9c-b3-9b-84-9d-2c-aa-c1-c0-b9-28-a9-f0-e2-b6-8e-39-c0-11]
           zkifc-712   [000] ....   557.987797: i2c_result: i2c-1 n=1 ret=1
           zkifc-711   [000] ....   557.995090: i2c_read: i2c-1 #0 a=030 f=0001 l=20
           zkifc-711   [000] ....   557.997037: i2c_reply: i2c-1 #0 a=030 f=0001 l=20 [de-ad-be-ef-00-00-ff-ff-00-01-40-02-00-00-00-00-4a-6d-4d-c7]
           zkifc-711   [000] ....   557.997038: i2c_result: i2c-1 n=1 ret=1
           zkifc-711   [000] ....   557.997043: i2c_read: i2c-1 #0 a=030 f=0001 l=596
           zkifc-711   [000] ....   558.050818: i2c_reply: i2c-1 #0 a=030 f=0001 l=596 [de-ad-be-ef-00-00-ff-ff-00-01-40-02-00-00-00-00-4a-6d-4d-c7-a4-4b-dc-53-fc-9c-b4-b3-53-0c-19-18-ca-d6-c0-aa-12-d8-9e-30-bc-e0-fe-11-03-3f-84-0e-86-7f-80-7e-3e-3f-46-d7-56-0f-1d-49-71-c6-3f-ee]
           zkifc-711   [000] ....   558.050820: i2c_result: i2c-1 n=1 ret=1
           zkifc-711   [000] ....   558.050972: i2c_read: i2c-1 #0 a=030 f=0001 l=20
           zkifc-711   [000] ....   558.051100: i2c_result: i2c-1 n=0 ret=-5
           zkifc-712   [000] ....   558.052204: i2c_write: i2c-1 #0 a=030 f=0000 l=612 [de-ad-be-ef-00-00-ff-ff-03-00-50-02-00-00-00-00-2f-56-54-51-cc-01-a8-32-2d-ed-c1-77-ba-0b-d0-62-b0-90-3b-b3-77-90-84-17-f9-ec-9e-6b-2f-43-0c-66-3d-7d-2e-b4-c1-c0-b9-28-a9-f0-e2-b6-8e-39-c0-11]
           zkifc-712   [000] ....   558.107419: i2c_result: i2c-1 n=1 ret=1
           zkifc-711   [000] ....   558.114055: i2c_read: i2c-1 #0 a=030 f=0001 l=20
           zkifc-711   [000] ....   558.115986: i2c_reply: i2c-1 #0 a=030 f=0001 l=20 [de-ad-be-ef-00-00-ff-ff-00-01-40-02-00-00-00-00-2f-56-d6-c6]
           zkifc-711   [000] ....   558.115987: i2c_result: i2c-1 n=1 ret=1
           zkifc-711   [000] ....   558.115991: i2c_read: i2c-1 #0 a=030 f=0001 l=596
           zkifc-711   [000] ....   558.169773: i2c_reply: i2c-1 #0 a=030 f=0001 l=596 [de-ad-be-ef-00-00-ff-ff-00-01-40-02-00-00-00-00-2f-56-d6-c6-69-de-d4-79-6b-f9-44-81-4b-30-6c-32-b4-04-c2-ae-8f-a0-75-1e-2b-38-fc-f7-1f-6b-a3-cd-c9-a6-b7-76-3e-3f-46-d7-56-0f-1d-49-71-c6-3f-ee]
           zkifc-711   [000] ....   558.169781: i2c_result: i2c-1 n=1 ret=1
           zkifc-711   [000] ....   558.170015: i2c_read: i2c-1 #0 a=030 f=0001 l=20
           zkifc-711   [000] ....   558.170149: i2c_result: i2c-1 n=0 ret=-5
           zkifc-712   [000] ....   558.171251: i2c_write: i2c-1 #0 a=030 f=0000 l=612 [de-ad-be-ef-00-00-ff-ff-03-00-50-02-00-00-00-00-41-79-37-45-79-6c-eb-97-4c-b1-d7-7d-6b-ca-56-87-0c-01-f9-43-73-27-41-de-b2-e0-89-75-0a-2e-68-35-e9-24-07-1e-c1-c0-b9-28-a9-f0-e2-b6-8e-39-c0-11]
           zkifc-712   [000] ....   558.226483: i2c_result: i2c-1 n=1 ret=1
           zkifc-711   [000] ....   558.233116: i2c_read: i2c-1 #0 a=030 f=0001 l=20
           zkifc-711   [000] ....   558.235057: i2c_reply: i2c-1 #0 a=030 f=0001 l=20 [de-ad-be-ef-00-00-ff-ff-00-01-40-02-00-00-00-00-41-79-5f-c6]
           zkifc-711   [000] ....   558.235059: i2c_result: i2c-1 n=1 ret=1
           zkifc-711   [000] ....   558.235064: i2c_read: i2c-1 #0 a=030 f=0001 l=596
           zkifc-711   [000] ....   558.288836: i2c_reply: i2c-1 #0 a=030 f=0001 l=596 [de-ad-be-ef-00-00-ff-ff-00-01-40-02-00-00-00-00-41-79-5f-c6-6f-ad-c9-10-d2-1f-ff-3d-2d-64-89-b4-ad-56-6b-e4-7e-19-0c-aa-34-cc-d0-3d-bc-0a-7f-7c-20-83-65-6a-3e-3f-46-d7-56-0f-1d-49-71-c6-3f-ee]
           zkifc-711   [000] ....   558.288838: i2c_result: i2c-1 n=1 ret=1
           zkifc-711   [000] ....   558.289026: i2c_read: i2c-1 #0 a=030 f=0001 l=20
           zkifc-711   [000] ....   558.289155: i2c_result: i2c-1 n=0 ret=-5
           zkifc-712   [000] ....   558.290304: i2c_write: i2c-1 #0 a=030 f=0000 l=612 [de-ad-be-ef-00-00-ff-ff-03-00-50-02-00-00-00-00-35-58-58-77-5c-5e-4c-e4-d1-a7-a7-6b-e6-f3-80-fe-66-23-17-79-d7-68-f8-0f-6e-df-70-07-10-78-14-7b-4e-2e-d8-bc-c1-c0-b9-28-a9-f0-e2-b6-8e-39-c0-11]
           zkifc-712   [000] ....   558.345519: i2c_result: i2c-1 n=1 ret=1
           zkifc-711   [000] ....   558.352072: i2c_read: i2c-1 #0 a=030 f=0001 l=20
           zkifc-711   [000] ....   558.354003: i2c_reply: i2c-1 #0 a=030 f=0001 l=20 [de-ad-be-ef-00-00-ff-ff-00-01-40-02-00-00-00-00-35-58-e8-c5]
           zkifc-711   [000] ....   558.354004: i2c_result: i2c-1 n=1 ret=1
           zkifc-711   [000] ....   558.354008: i2c_read: i2c-1 #0 a=030 f=0001 l=596
           zkifc-711   [000] ....   558.407818: i2c_reply: i2c-1 #0 a=030 f=0001 l=596 [de-ad-be-ef-00-00-ff-ff-00-01-40-02-00-00-00-00-35-58-e8-c5-32-e6-b8-10-b6-a5-d9-aa-ff-82-cb-1e-19-ec-cf-60-21-c8-e5-57-f5-e5-ff-87-15-00-67-f0-14-3b-36-94-3e-3f-46-d7-56-0f-1d-49-71-c6-3f-ee]
           zkifc-711   [000] ....   558.407826: i2c_result: i2c-1 n=1 ret=1
           zkifc-711   [000] ....   558.408079: i2c_read: i2c-1 #0 a=030 f=0001 l=20
           zkifc-711   [000] ....   558.408213: i2c_result: i2c-1 n=0 ret=-5
           zkifc-712   [000] ....   558.409364: i2c_write: i2c-1 #0 a=030 f=0000 l=612 [de-ad-be-ef-00-00-ff-ff-03-00-50-02-00-00-00-00-63-39-4d-45-57-fc-55-90-6d-04-b2-dd-94-3a-48-3e-14-38-66-dd-81-1e-0e-91-35-f5-26-6d-eb-45-39-a2-8b-77-8b-09-c1-c0-b9-28-a9-f0-e2-b6-8e-39-c0-11]
           zkifc-712   [000] ....   558.464586: i2c_result: i2c-1 n=1 ret=1
           zkifc-711   [000] ....   558.471239: i2c_read: i2c-1 #0 a=030 f=0001 l=20
           zkifc-711   [000] ....   558.473191: i2c_reply: i2c-1 #0 a=030 f=0001 l=20 [de-ad-be-ef-00-00-ff-ff-00-01-40-02-00-00-00-00-63-39-71-c5]
           zkifc-711   [000] ....   558.473196: i2c_result: i2c-1 n=1 ret=1
           zkifc-711   [000] ....   558.473213: i2c_read: i2c-1 #0 a=030 f=0001 l=596
           zkifc-711   [000] ....   558.526993: i2c_reply: i2c-1 #0 a=030 f=0001 l=596 [de-ad-be-ef-00-00-ff-ff-00-01-40-02-00-00-00-00-63-39-71-c5-b5-06-92-8c-35-3a-85-42-2b-20-3a-3a-1b-ab-fc-89-63-e8-76-f2-6d-04-aa-6f-56-76-59-2b-77-54-b7-f3-3e-3f-46-d7-56-0f-1d-49-71-c6-3f-ee]
           zkifc-711   [000] ....   558.527000: i2c_result: i2c-1 n=1 ret=1
           zkifc-711   [000] ....   558.527230: i2c_read: i2c-1 #0 a=030 f=0001 l=20
           zkifc-711   [000] ....   558.527361: i2c_result: i2c-1 n=0 ret=-5
           zkifc-712   [000] ....   558.528468: i2c_write: i2c-1 #0 a=030 f=0000 l=612 [de-ad-be-ef-00-00-ff-ff-03-00-50-02-00-00-00-00-4f-31-4b-61-8f-53-7c-44-b8-0c-52-50-2f-06-d0-62-63-6a-6f-a6-7a-c8-78-d5-84-d0-1e-32-0c-ab-92-60-de-ad-c9-49-c1-c0-b9-28-a9-f0-e2-b6-8e-39-c0-11]
           zkifc-712   [000] ....   558.583684: i2c_result: i2c-1 n=1 ret=1
           zkifc-711   [000] ....   558.591087: i2c_read: i2c-1 #0 a=030 f=0001 l=20
           zkifc-711   [000] ....   558.593015: i2c_reply: i2c-1 #0 a=030 f=0001 l=20 [de-ad-be-ef-00-00-ff-ff-00-01-40-02-00-00-00-00-4f-31-f9-c4]
           zkifc-711   [000] ....   558.593017: i2c_result: i2c-1 n=1 ret=1
           zkifc-711   [000] ....   558.593021: i2c_read: i2c-1 #0 a=030 f=0001 l=596
           zkifc-711   [000] ....   558.646832: i2c_reply: i2c-1 #0 a=030 f=0001 l=596 [de-ad-be-ef-00-00-ff-ff-00-01-40-02-00-00-00-00-4f-31-f9-c4-c3-4e-9e-68-c8-db-9d-20-b4-98-a6-c4-28-5d-82-56-ad-51-70-6b-da-79-7a-53-fd-65-40-54-c9-4d-78-ec-3e-3f-46-d7-56-0f-1d-49-71-c6-3f-ee]
           zkifc-711   [000] ....   558.646838: i2c_result: i2c-1 n=1 ret=1
           zkifc-711   [000] ....   558.647086: i2c_read: i2c-1 #0 a=030 f=0001 l=20
           zkifc-711   [000] ....   558.647221: i2c_result: i2c-1 n=0 ret=-5
           zkifc-712   [000] ....   558.648403: i2c_write: i2c-1 #0 a=030 f=0000 l=612 [de-ad-be-ef-00-00-ff-ff-03-00-50-02-00-00-00-00-57-70-2f-52-1d-80-b6-68-fc-fa-57-ff-38-db-4a-b1-1a-e2-7d-68-7e-9a-d8-b7-8f-96-5b-08-4b-89-a1-8b-e2-8a-56-3e-c1-c0-b9-28-a9-f0-e2-b6-8e-39-c0-11]
           zkifc-712   [000] ....   558.703633: i2c_result: i2c-1 n=1 ret=1
           zkifc-711   [000] ....   558.711242: i2c_read: i2c-1 #0 a=030 f=0001 l=20
           zkifc-711   [000] ....   558.713190: i2c_reply: i2c-1 #0 a=030 f=0001 l=20 [de-ad-be-ef-00-00-ff-ff-00-01-40-02-00-00-00-00-57-70-82-c4]
           zkifc-711   [000] ....   558.713195: i2c_result: i2c-1 n=1 ret=1
           zkifc-711   [000] ....   558.713212: i2c_read: i2c-1 #0 a=030 f=0001 l=596
           zkifc-711   [000] ....   558.766994: i2c_reply: i2c-1 #0 a=030 f=0001 l=596 [de-ad-be-ef-00-00-ff-ff-00-01-40-02-00-00-00-00-57-70-82-c4-54-cb-fa-fc-92-88-6c-31-d9-54-44-2f-3f-ea-33-d0-8a-38-20-c8-c3-f8-01-86-c0-0d-1a-f6-06-c4-64-c4-3e-3f-46-d7-56-0f-1d-49-71-c6-3f-ee]
           zkifc-711   [000] ....   558.767001: i2c_result: i2c-1 n=1 ret=1
           zkifc-711   [000] ....   558.767252: i2c_read: i2c-1 #0 a=030 f=0001 l=20
           zkifc-711   [000] ....   558.767384: i2c_result: i2c-1 n=0 ret=-5
           zkifc-712   [000] ....   558.768509: i2c_write: i2c-1 #0 a=030 f=0000 l=612 [de-ad-be-ef-00-00-ff-ff-03-00-50-02-00-00-00-00-4c-75-32-63-41-cb-4c-d9-4c-26-85-74-de-92-19-43-e9-9b-97-16-c0-d2-9f-22-6f-48-9a-a3-91-a4-d7-f4-77-64-90-49-c1-c0-b9-28-a9-f0-e2-b6-8e-39-c0-11]
           zkifc-712   [000] ....   558.823723: i2c_result: i2c-1 n=1 ret=1
           zkifc-711   [000] ....   558.831109: i2c_read: i2c-1 #0 a=030 f=0001 l=20
           zkifc-711   [000] ....   558.833054: i2c_reply: i2c-1 #0 a=030 f=0001 l=20 [de-ad-be-ef-00-00-ff-ff-00-01-40-02-00-00-00-00-4c-75-09-c4]
           zkifc-711   [000] ....   558.833056: i2c_result: i2c-1 n=1 ret=1
           zkifc-711   [000] ....   558.833060: i2c_read: i2c-1 #0 a=030 f=0001 l=596
           zkifc-711   [000] ....   558.886869: i2c_reply: i2c-1 #0 a=030 f=0001 l=596 [de-ad-be-ef-00-00-ff-ff-00-01-40-02-00-00-00-00-4c-75-09-c4-39-15-7d-c2-50-a9-61-d2-61-0a-24-7d-2a-ea-89-bf-29-d6-c9-59-20-c2-1d-37-2c-2e-5b-75-85-66-f1-5b-3e-3f-46-d7-56-0f-1d-49-71-c6-3f-ee]
           zkifc-711   [000] ....   558.886877: i2c_result: i2c-1 n=1 ret=1
           zkifc-711   [000] ....   558.887125: i2c_read: i2c-1 #0 a=030 f=0001 l=20
           zkifc-711   [000] ....   558.887258: i2c_result: i2c-1 n=0 ret=-5
           zkifc-712   [000] ....   558.888435: i2c_write: i2c-1 #0 a=030 f=0000 l=612 [de-ad-be-ef-00-00-ff-ff-03-00-50-02-00-00-00-00-66-57-70-35-f5-d4-dc-04-f1-9c-f2-6a-5a-5e-6b-c9-1c-8d-d2-36-b9-cc-f1-ee-d5-87-b6-fc-e9-b0-00-bc-97-05-fb-13-c1-c0-b9-28-a9-f0-e2-b6-8e-39-c0-11]
           zkifc-712   [000] ....   558.943665: i2c_result: i2c-1 n=1 ret=1
           zkifc-711   [000] ....   558.951252: i2c_read: i2c-1 #0 a=030 f=0001 l=20
           zkifc-711   [000] ....   558.953201: i2c_reply: i2c-1 #0 a=030 f=0001 l=20 [de-ad-be-ef-00-00-ff-ff-00-01-40-02-00-00-00-00-66-57-91-c3]
           zkifc-711   [000] ....   558.953207: i2c_result: i2c-1 n=1 ret=1
           zkifc-711   [000] ....   558.953224: i2c_read: i2c-1 #0 a=030 f=0001 l=596
           zkifc-711   [000] ....   559.007004: i2c_reply: i2c-1 #0 a=030 f=0001 l=596 [de-ad-be-ef-00-00-ff-ff-00-01-40-02-00-00-00-00-66-57-91-c3-b9-c5-b3-a0-70-58-97-1d-f2-7e-2a-dc-18-47-bb-47-c3-1c-2e-ad-e7-ea-b4-16-4d-b9-7c-6f-ad-48-f8-6f-3e-3f-46-d7-56-0f-1d-49-71-c6-3f-ee]
           zkifc-711   [000] ....   559.007012: i2c_result: i2c-1 n=1 ret=1
           zkifc-711   [000] ....   559.007239: i2c_read: i2c-1 #0 a=030 f=0001 l=20
           zkifc-711   [000] ....   559.007371: i2c_result: i2c-1 n=0 ret=-5
           zkifc-712   [000] ....   559.008467: i2c_write: i2c-1 #0 a=030 f=0000 l=612 [de-ad-be-ef-00-00-ff-ff-03-00-50-02-00-00-00-00-4b-31-63-5a-e2-a6-cc-d2-fa-0d-3c-d9-85-7d-6f-7e-30-4f-79-4c-78-eb-0b-24-eb-00-df-3a-5e-23-15-25-f5-b0-c1-ec-c1-c0-b9-28-a9-f0-e2-b6-8e-39-c0-11]
           zkifc-712   [000] ....   559.063691: i2c_result: i2c-1 n=1 ret=1
           zkifc-711   [000] ....   559.071165: i2c_read: i2c-1 #0 a=030 f=0001 l=20
           zkifc-711   [000] ....   559.073101: i2c_reply: i2c-1 #0 a=030 f=0001 l=20 [de-ad-be-ef-00-00-ff-ff-00-01-40-02-00-00-00-00-4b-31-19-c3]
           zkifc-711   [000] ....   559.073102: i2c_result: i2c-1 n=1 ret=1
           zkifc-711   [000] ....   559.073107: i2c_read: i2c-1 #0 a=030 f=0001 l=596
           zkifc-711   [000] ....   559.126887: i2c_reply: i2c-1 #0 a=030 f=0001 l=596 [de-ad-be-ef-00-00-ff-ff-00-01-40-02-00-00-00-00-4b-31-19-c3-8e-48-14-aa-38-d6-1b-77-12-ef-b1-25-60-af-0d-53-08-c2-8c-62-90-6a-4f-42-a2-e1-44-d0-da-82-c2-70-3e-3f-46-d7-56-0f-1d-49-71-c6-3f-ee]
           zkifc-711   [000] ....   559.126892: i2c_result: i2c-1 n=1 ret=1
           zkifc-711   [000] ....   559.127109: i2c_read: i2c-1 #0 a=030 f=0001 l=20
           zkifc-711   [000] ....   559.127241: i2c_result: i2c-1 n=0 ret=-5
           zkifc-712   [000] ....   559.128335: i2c_write: i2c-1 #0 a=030 f=0000 l=612 [de-ad-be-ef-00-00-ff-ff-03-00-50-02-00-00-00-00-51-37-63-67-1d-b4-c6-2f-c5-d2-ff-08-98-3a-80-70-ff-3d-d2-a7-e1-b4-1d-d2-aa-dd-9e-a2-99-fb-f1-4a-c6-38-0f-10-c1-c0-b9-28-a9-f0-e2-b6-8e-39-c0-11]
           zkifc-712   [000] ....   559.183583: i2c_result: i2c-1 n=1 ret=1
           zkifc-711   [000] ....   559.190194: i2c_read: i2c-1 #0 a=030 f=0001 l=20
           zkifc-711   [000] ....   559.192133: i2c_reply: i2c-1 #0 a=030 f=0001 l=20 [de-ad-be-ef-00-00-ff-ff-00-01-40-02-00-00-00-00-51-37-a2-c2]
           zkifc-711   [000] ....   559.192135: i2c_result: i2c-1 n=1 ret=1
           zkifc-711   [000] ....   559.192140: i2c_read: i2c-1 #0 a=030 f=0001 l=596
           zkifc-711   [000] ....   559.245928: i2c_reply: i2c-1 #0 a=030 f=0001 l=596 [de-ad-be-ef-00-00-ff-ff-00-01-40-02-00-00-00-00-51-37-a2-c2-8b-01-a6-60-b5-3c-3b-24-a6-82-ed-6c-8d-9e-98-1b-53-8f-06-c9-12-95-5d-4d-87-25-70-8d-46-1e-95-1e-3e-3f-46-d7-56-0f-1d-49-71-c6-3f-ee]
           zkifc-711   [000] ....   559.245934: i2c_result: i2c-1 n=1 ret=1
           zkifc-711   [000] ....   559.246161: i2c_read: i2c-1 #0 a=030 f=0001 l=20
           zkifc-711   [000] ....   559.246291: i2c_result: i2c-1 n=0 ret=-5
           zkifc-712   [000] ....   559.247432: i2c_write: i2c-1 #0 a=030 f=0000 l=612 [de-ad-be-ef-00-00-ff-ff-03-00-50-02-00-00-00-00-51-78-42-69-f8-ae-35-14-17-d1-8a-ef-cc-45-5c-a5-7b-48-0b-11-33-4c-12-61-75-16-f3-58-3e-22-57-77-0f-4c-97-78-c1-c0-b9-28-a9-f0-e2-b6-8e-39-c0-11]
           zkifc-712   [000] ....   559.302648: i2c_result: i2c-1 n=1 ret=1
           zkifc-711   [000] ....   559.309157: i2c_read: i2c-1 #0 a=030 f=0001 l=20
           zkifc-711   [000] ....   559.311095: i2c_reply: i2c-1 #0 a=030 f=0001 l=20 [de-ad-be-ef-00-00-ff-ff-00-01-40-02-00-00-00-00-51-78-2b-c2]
           zkifc-711   [000] ....   559.311097: i2c_result: i2c-1 n=1 ret=1
           zkifc-711   [000] ....   559.311101: i2c_read: i2c-1 #0 a=030 f=0001 l=596
           zkifc-711   [000] ....   559.364881: i2c_reply: i2c-1 #0 a=030 f=0001 l=596 [de-ad-be-ef-00-00-ff-ff-00-01-40-02-00-00-00-00-51-78-2b-c2-5a-17-7b-42-59-ff-1b-ba-c1-cf-0d-5d-d4-06-d5-74-78-5e-f0-37-11-99-cd-12-3f-3d-e9-30-05-c1-98-4e-3e-3f-46-d7-56-0f-1d-49-71-c6-3f-ee]
           zkifc-711   [000] ....   559.364888: i2c_result: i2c-1 n=1 ret=1
           zkifc-711   [000] ....   559.365139: i2c_read: i2c-1 #0 a=030 f=0001 l=20
           zkifc-711   [000] ....   559.365269: i2c_result: i2c-1 n=0 ret=-5
           zkifc-712   [000] ....   559.366366: i2c_write: i2c-1 #0 a=030 f=0000 l=612 [de-ad-be-ef-00-00-ff-ff-03-00-50-02-00-00-00-00-57-77-38-6d-b4-a5-f9-83-18-6b-59-fb-2d-21-8a-c1-d5-ab-70-51-2a-9d-bc-fe-90-d6-0a-0f-d8-0b-54-26-39-73-17-e9-c1-c0-b9-28-a9-f0-e2-b6-8e-39-c0-11]
           zkifc-712   [000] ....   559.421603: i2c_result: i2c-1 n=1 ret=1
           zkifc-711   [000] ....   559.428251: i2c_read: i2c-1 #0 a=030 f=0001 l=20
           zkifc-711   [000] ....   559.430200: i2c_reply: i2c-1 #0 a=030 f=0001 l=20 [de-ad-be-ef-00-00-ff-ff-00-01-40-02-00-00-00-00-57-77-b4-c1]
           zkifc-711   [000] ....   559.430205: i2c_result: i2c-1 n=1 ret=1
           zkifc-711   [000] ....   559.430219: i2c_read: i2c-1 #0 a=030 f=0001 l=596
           zkifc-711   [000] ....   559.484006: i2c_reply: i2c-1 #0 a=030 f=0001 l=596 [de-ad-be-ef-00-00-ff-ff-00-01-40-02-00-00-00-00-57-77-b4-c1-b9-42-03-dd-e3-4e-09-2a-a6-c3-7d-76-13-6a-81-dd-f8-ab-81-9d-18-74-39-e7-56-15-cc-40-81-aa-3f-50-3e-3f-46-d7-56-0f-1d-49-71-c6-3f-ee]
           zkifc-711   [000] ....   559.484013: i2c_result: i2c-1 n=1 ret=1
           zkifc-711   [000] ....   559.484258: i2c_read: i2c-1 #0 a=030 f=0001 l=20
           zkifc-711   [000] ....   559.484389: i2c_result: i2c-1 n=0 ret=-5
           zkifc-712   [000] ....   559.485529: i2c_write: i2c-1 #0 a=030 f=0000 l=612 [de-ad-be-ef-00-00-ff-ff-03-00-50-02-00-00-00-00-74-67-73-42-61-6b-6f-bc-4c-44-2a-19-41-47-3b-f2-77-63-e3-35-8b-b1-4f-73-82-c1-87-a4-0b-e9-5f-d7-ac-01-f9-51-c1-c0-b9-28-a9-f0-e2-b6-8e-39-c0-11]
           zkifc-712   [000] ....   559.540741: i2c_result: i2c-1 n=1 ret=1
           zkifc-711   [000] ....   559.548160: i2c_read: i2c-1 #0 a=030 f=0001 l=20
           zkifc-711   [000] ....   559.550103: i2c_reply: i2c-1 #0 a=030 f=0001 l=20 [de-ad-be-ef-00-00-ff-ff-00-01-40-02-00-00-00-00-74-67-3c-c1]
           zkifc-711   [000] ....   559.550104: i2c_result: i2c-1 n=1 ret=1
           zkifc-711   [000] ....   559.550108: i2c_read: i2c-1 #0 a=030 f=0001 l=596
           zkifc-711   [000] ....   559.603912: i2c_reply: i2c-1 #0 a=030 f=0001 l=596 [de-ad-be-ef-00-00-ff-ff-00-01-40-02-00-00-00-00-74-67-3c-c1-39-85-37-29-12-f4-09-16-14-13-68-65-6b-df-a2-d4-92-5e-03-7e-26-e3-1a-ee-1d-73-94-e5-71-b8-ab-3a-3e-3f-46-d7-56-0f-1d-49-71-c6-3f-ee]
           zkifc-711   [000] ....   559.603919: i2c_result: i2c-1 n=1 ret=1
           zkifc-711   [000] ....   559.604165: i2c_read: i2c-1 #0 a=030 f=0001 l=20
           zkifc-711   [000] ....   559.604300: i2c_result: i2c-1 n=0 ret=-5
           zkifc-712   [000] ....   559.604633: i2c_write: i2c-1 #0 a=030 f=0000 l=84 [de-ad-be-ef-00-00-ff-ff-03-00-40-00-00-00-00-00-64-15-80-75-37-d3-9b-bc-96-14-81-49-f8-f7-ae-64-a8-87-6a-79-4d-b6-fd-57-81-36-89-3b-56-0d-86-09-e6-3a-fb-dc-c1-c0-b9-28-a9-f0-e2-b6-8e-39-c0-11]
           zkifc-712   [000] ....   559.612502: i2c_result: i2c-1 n=1 ret=1
           zkifc-711   [000] ....   559.615264: i2c_read: i2c-1 #0 a=030 f=0001 l=20
           zkifc-711   [000] ....   559.617220: i2c_reply: i2c-1 #0 a=030 f=0001 l=20 [de-ad-be-ef-00-00-ff-ff-00-01-40-00-00-00-00-00-64-15-f9-c0]
           zkifc-711   [000] ....   559.617227: i2c_result: i2c-1 n=1 ret=1
           zkifc-711   [000] ....   559.617241: i2c_read: i2c-1 #0 a=030 f=0001 l=84
           zkifc-711   [000] ....   559.624936: i2c_reply: i2c-1 #0 a=030 f=0001 l=84 [de-ad-be-ef-00-00-ff-ff-00-01-40-00-00-00-00-00-64-15-f9-c0-32-60-af-f9-f3-eb-50-5b-e6-d8-41-09-2d-7a-4f-9f-51-81-f3-3d-77-85-c1-86-f1-69-4d-d7-16-73-f1-6d-3e-3f-46-d7-56-0f-1d-49-71-c6-3f-ee]
           zkifc-711   [000] ....   559.624940: i2c_result: i2c-1 n=1 ret=1
           zkifc-711   [000] ....   559.625129: i2c_read: i2c-1 #0 a=030 f=0001 l=20
           zkifc-711   [000] ....   559.625260: i2c_result: i2c-1 n=0 ret=-5
           zkifc-712   [000] ....   559.625661: i2c_write: i2c-1 #0 a=030 f=0000 l=612 [de-ad-be-ef-00-00-ff-ff-03-00-50-02-00-00-00-00-41-41-78-63-a0-2f-ab-ae-a3-ee-b0-db-eb-43-3e-70-f4-0c-ef-8c-ab-e3-28-b2-26-95-71-de-c2-e6-08-ab-6a-1c-bb-10-c1-c0-b9-28-a9-f0-e2-b6-8e-39-c0-11]
           zkifc-712   [000] ....   559.680917: i2c_result: i2c-1 n=1 ret=1
           zkifc-711   [000] ....   559.688354: i2c_read: i2c-1 #0 a=030 f=0001 l=20
           zkifc-711   [000] ....   559.690314: i2c_reply: i2c-1 #0 a=030 f=0001 l=20 [de-ad-be-ef-00-00-ff-ff-00-01-40-02-00-00-00-00-41-41-b0-c0]
           zkifc-711   [000] ....   559.690321: i2c_result: i2c-1 n=1 ret=1
           zkifc-711   [000] ....   559.690332: i2c_read: i2c-1 #0 a=030 f=0001 l=596
           zkifc-711   [000] ....   559.744106: i2c_reply: i2c-1 #0 a=030 f=0001 l=596 [de-ad-be-ef-00-00-ff-ff-00-01-40-02-00-00-00-00-41-41-b0-c0-45-f2-55-41-54-a5-ee-59-17-aa-71-89-be-f4-a9-cf-65-8a-a1-7e-df-70-57-12-0c-bc-22-2a-c3-05-9d-11-3e-3f-46-d7-56-0f-1d-49-71-c6-3f-ee]
           zkifc-711   [000] ....   559.744112: i2c_result: i2c-1 n=1 ret=1
           zkifc-711   [000] ....   559.744325: i2c_read: i2c-1 #0 a=030 f=0001 l=20
           zkifc-711   [000] ....   559.744456: i2c_result: i2c-1 n=0 ret=-5
           zkifc-712   [000] ....   559.745562: i2c_write: i2c-1 #0 a=030 f=0000 l=612 [de-ad-be-ef-00-00-ff-ff-03-00-50-02-00-00-00-00-6b-47-2b-6c-81-a3-e7-0b-71-c5-76-11-c9-32-e6-11-48-6e-cd-bc-de-be-94-08-1f-7f-31-cc-32-2b-37-c6-18-ca-f6-3a-c1-c0-b9-28-a9-f0-e2-b6-8e-39-c0-11]
           zkifc-712   [000] ....   559.800774: i2c_result: i2c-1 n=1 ret=1
           zkifc-711   [000] ....   559.808166: i2c_read: i2c-1 #0 a=030 f=0001 l=20
           zkifc-711   [000] ....   559.810099: i2c_reply: i2c-1 #0 a=030 f=0001 l=20 [de-ad-be-ef-00-00-ff-ff-00-01-40-02-00-00-00-00-6b-47-38-c0]
           zkifc-711   [000] ....   559.810100: i2c_result: i2c-1 n=1 ret=1
           zkifc-711   [000] ....   559.810104: i2c_read: i2c-1 #0 a=030 f=0001 l=596
           zkifc-711   [000] ....   559.863877: i2c_reply: i2c-1 #0 a=030 f=0001 l=596 [de-ad-be-ef-00-00-ff-ff-00-01-40-02-00-00-00-00-6b-47-38-c0-08-5a-7a-d4-2b-5d-b9-d8-84-60-ec-9b-a2-47-49-27-56-e1-20-ee-7f-3c-25-0e-87-07-f2-8d-85-ac-e0-6f-3e-3f-46-d7-56-0f-1d-49-71-c6-3f-ee]
           zkifc-711   [000] ....   559.863879: i2c_result: i2c-1 n=1 ret=1
           zkifc-711   [000] ....   559.864023: i2c_read: i2c-1 #0 a=030 f=0001 l=20
           zkifc-711   [000] ....   559.864151: i2c_result: i2c-1 n=0 ret=-5
           zkifc-712   [000] ....   559.865140: i2c_write: i2c-1 #0 a=030 f=0000 l=612 [de-ad-be-ef-00-00-ff-ff-03-00-50-02-00-00-00-00-67-72-42-4c-f6-bf-36-74-3d-c3-c0-78-f3-6f-9f-c3-f7-cf-bc-f7-ba-f6-bb-a2-c8-98-5b-ee-7c-66-cf-40-63-3b-ca-55-c1-c0-b9-28-a9-f0-e2-b6-8e-39-c0-11]
           zkifc-712   [000] ....   559.920369: i2c_result: i2c-1 n=1 ret=1
           zkifc-711   [000] ....   559.927220: i2c_read: i2c-1 #0 a=030 f=0001 l=20
           zkifc-711   [000] ....   559.929158: i2c_reply: i2c-1 #0 a=030 f=0001 l=20 [de-ad-be-ef-00-00-ff-ff-00-01-40-02-00-00-00-00-67-72-c1-bf]
           zkifc-711   [000] ....   559.929159: i2c_result: i2c-1 n=1 ret=1
           zkifc-711   [000] ....   559.929164: i2c_read: i2c-1 #0 a=030 f=0001 l=596
           zkifc-711   [000] ....   559.982975: i2c_reply: i2c-1 #0 a=030 f=0001 l=596 [de-ad-be-ef-00-00-ff-ff-00-01-40-02-00-00-00-00-67-72-c1-bf-af-8d-44-e9-50-9e-f6-cd-2d-ba-59-4e-f3-2b-0e-f3-0e-b2-0d-64-8d-17-b2-39-b5-d8-ab-1f-a0-6b-82-f1-3e-3f-46-d7-56-0f-1d-49-71-c6-3f-ee]
           zkifc-711   [000] ....   559.982982: i2c_result: i2c-1 n=1 ret=1
           zkifc-711   [000] ....   559.983247: i2c_read: i2c-1 #0 a=030 f=0001 l=20
           zkifc-711   [000] ....   559.983392: i2c_result: i2c-1 n=0 ret=-5
           zkifc-712   [000] ....   559.984888: i2c_write: i2c-1 #0 a=030 f=0000 l=612 [de-ad-be-ef-00-00-ff-ff-03-00-50-02-00-00-00-00-6d-38-52-6e-0b-40-28-54-17-9d-33-a5-db-20-a6-36-83-d2-ee-f5-73-e4-93-49-e4-ac-70-d1-b0-b2-22-cf-a4-15-9f-2b-c1-c0-b9-28-a9-f0-e2-b6-8e-39-c0-11]
           zkifc-712   [000] ....   560.067298: i2c_result: i2c-1 n=1 ret=1
           zkifc-711   [000] ....   560.074314: i2c_read: i2c-1 #0 a=030 f=0001 l=20
           zkifc-711   [000] ....   560.077408: i2c_reply: i2c-1 #0 a=030 f=0001 l=20 [de-ad-be-ef-00-00-ff-ff-00-01-40-02-00-00-00-00-6d-38-2e-bf]
           zkifc-711   [000] ....   560.077411: i2c_result: i2c-1 n=1 ret=1
           zkifc-711   [000] ....   560.077419: i2c_read: i2c-1 #0 a=030 f=0001 l=596
           zkifc-711   [000] ....   560.163480: i2c_reply: i2c-1 #0 a=030 f=0001 l=596 [de-ad-be-ef-00-00-ff-ff-00-01-40-02-00-00-00-00-6d-38-2e-bf-96-28-f5-02-39-7c-94-63-93-60-91-21-ad-4f-0e-66-94-d3-18-38-ea-8d-13-e2-f0-c6-74-9a-f5-28-1a-22-3e-3f-46-d7-56-0f-1d-49-71-c6-3f-ee]
           zkifc-711   [000] ....   560.163490: i2c_result: i2c-1 n=1 ret=1
           zkifc-711   [000] ....   560.163839: i2c_read: i2c-1 #0 a=030 f=0001 l=20
           zkifc-711   [000] ....   560.164056: i2c_result: i2c-1 n=0 ret=-5
           zkifc-712   [000] ....   560.166103: i2c_write: i2c-1 #0 a=030 f=0000 l=612 [de-ad-be-ef-00-00-ff-ff-03-00-50-02-00-00-00-00-50-73-75-2f-5b-79-2d-25-e4-f0-d0-5a-3d-8b-8e-7c-05-c6-ae-57-66-25-58-ea-d1-5e-da-59-79-1a-65-32-47-3d-37-61-c1-c0-b9-28-a9-f0-e2-b6-8e-39-c0-11]
           zkifc-712   [000] ....   560.254465: i2c_result: i2c-1 n=1 ret=1
           zkifc-711   [000] ....   560.261601: i2c_read: i2c-1 #0 a=030 f=0001 l=20
           zkifc-711   [000] ....   560.264725: i2c_reply: i2c-1 #0 a=030 f=0001 l=20 [de-ad-be-ef-00-00-ff-ff-00-01-40-02-00-00-00-00-50-73-73-be]
           zkifc-711   [000] ....   560.264734: i2c_result: i2c-1 n=1 ret=1
           zkifc-711   [000] ....   560.264760: i2c_read: i2c-1 #0 a=030 f=0001 l=596
           zkifc-711   [000] ....   560.330627: i2c_reply: i2c-1 #0 a=030 f=0001 l=596 [de-ad-be-ef-00-00-ff-ff-00-01-40-02-00-00-00-00-50-73-73-be-f1-3b-a8-7e-29-a5-0b-85-2e-d2-95-aa-12-4e-f8-5d-46-51-27-e0-5b-26-ba-5a-a0-20-02-3b-9e-91-44-b7-3e-3f-46-d7-56-0f-1d-49-71-c6-3f-ee]
           zkifc-711   [000] ....   560.330634: i2c_result: i2c-1 n=1 ret=1
           zkifc-711   [000] ....   560.330858: i2c_read: i2c-1 #0 a=030 f=0001 l=20
           zkifc-711   [000] ....   560.330988: i2c_result: i2c-1 n=0 ret=-5
           zkifc-712   [000] ....   560.332095: i2c_write: i2c-1 #0 a=030 f=0000 l=612 [de-ad-be-ef-00-00-ff-ff-03-00-50-02-00-00-00-00-53-4d-68-73-86-08-2e-aa-fd-79-62-7f-77-6a-63-8d-69-87-4e-39-ea-7d-2b-c3-66-d9-86-e7-78-08-29-b9-a3-30-7c-52-c1-c0-b9-28-a9-f0-e2-b6-8e-39-c0-11]
           zkifc-712   [000] ....   560.387309: i2c_result: i2c-1 n=1 ret=1
           zkifc-711   [000] ....   560.394197: i2c_read: i2c-1 #0 a=030 f=0001 l=20
           zkifc-711   [000] ....   560.396127: i2c_reply: i2c-1 #0 a=030 f=0001 l=20 [de-ad-be-ef-00-00-ff-ff-00-01-40-02-00-00-00-00-53-4d-ee-bd]
           zkifc-711   [000] ....   560.396128: i2c_result: i2c-1 n=1 ret=1
           zkifc-711   [000] ....   560.396132: i2c_read: i2c-1 #0 a=030 f=0001 l=596
           zkifc-711   [000] ....   560.449914: i2c_reply: i2c-1 #0 a=030 f=0001 l=596 [de-ad-be-ef-00-00-ff-ff-00-01-40-02-00-00-00-00-53-4d-ee-bd-92-83-09-e6-73-f7-39-62-52-86-c6-95-c0-d7-ab-4c-77-58-88-08-5c-49-12-c5-34-e4-4d-3c-31-1a-85-a4-3e-3f-46-d7-56-0f-1d-49-71-c6-3f-ee]
           zkifc-711   [000] ....   560.449922: i2c_result: i2c-1 n=1 ret=1
           zkifc-711   [000] ....   560.450145: i2c_read: i2c-1 #0 a=030 f=0001 l=20
           zkifc-711   [000] ....   560.450275: i2c_result: i2c-1 n=0 ret=-5
           zkifc-712   [000] ....   560.451458: i2c_write: i2c-1 #0 a=030 f=0000 l=612 [de-ad-be-ef-00-00-ff-ff-03-00-50-02-00-00-00-00-39-54-54-6a-49-7f-4d-de-13-f3-0b-a6-16-6f-ce-46-c7-d6-d0-af-63-3b-59-1a-30-aa-35-09-6e-f6-72-58-e5-93-19-ae-c1-c0-b9-28-a9-f0-e2-b6-8e-39-c0-11]
           zkifc-712   [000] ....   560.506699: i2c_result: i2c-1 n=1 ret=1
           zkifc-711   [000] ....   560.513291: i2c_read: i2c-1 #0 a=030 f=0001 l=20
           zkifc-711   [000] ....   560.515278: i2c_reply: i2c-1 #0 a=030 f=0001 l=20 [de-ad-be-ef-00-00-ff-ff-00-01-40-02-00-00-00-00-39-54-77-bd]
           zkifc-711   [000] ....   560.515290: i2c_result: i2c-1 n=1 ret=1
           zkifc-711   [000] ....   560.515318: i2c_read: i2c-1 #0 a=030 f=0001 l=596
           zkifc-711   [000] ....   560.569100: i2c_reply: i2c-1 #0 a=030 f=0001 l=596 [de-ad-be-ef-00-00-ff-ff-00-01-40-02-00-00-00-00-39-54-77-bd-82-f2-21-0f-85-69-98-9c-b2-70-fa-3c-d6-3c-f9-e7-e1-61-dd-08-93-87-5b-f2-f9-71-f3-02-a0-ff-1d-f3-3e-3f-46-d7-56-0f-1d-49-71-c6-3f-ee]
           zkifc-711   [000] ....   560.569105: i2c_result: i2c-1 n=1 ret=1
           zkifc-711   [000] ....   560.569350: i2c_read: i2c-1 #0 a=030 f=0001 l=20
           zkifc-711   [000] ....   560.569481: i2c_result: i2c-1 n=0 ret=-5
           zkifc-712   [000] ....   560.570613: i2c_write: i2c-1 #0 a=030 f=0000 l=612 [de-ad-be-ef-00-00-ff-ff-03-00-50-02-00-00-00-00-2b-37-57-36-8b-07-f7-14-6c-b9-45-a7-83-4a-27-58-c1-31-c2-60-84-c5-22-e4-23-d8-4b-4e-3e-d0-27-cd-d6-52-55-6a-c1-c0-b9-28-a9-f0-e2-b6-8e-39-c0-11]
           zkifc-712   [000] ....   560.625828: i2c_result: i2c-1 n=1 ret=1
           zkifc-711   [000] ....   560.633211: i2c_read: i2c-1 #0 a=030 f=0001 l=20
           zkifc-711   [000] ....   560.635141: i2c_reply: i2c-1 #0 a=030 f=0001 l=20 [de-ad-be-ef-00-00-ff-ff-00-01-40-02-00-00-00-00-2b-37-ff-bc]
           zkifc-711   [000] ....   560.635143: i2c_result: i2c-1 n=1 ret=1
           zkifc-711   [000] ....   560.635147: i2c_read: i2c-1 #0 a=030 f=0001 l=596
           zkifc-711   [000] ....   560.688918: i2c_reply: i2c-1 #0 a=030 f=0001 l=596 [de-ad-be-ef-00-00-ff-ff-00-01-40-02-00-00-00-00-2b-37-ff-bc-d5-70-67-dc-ce-19-ae-b0-4a-02-42-3c-6f-3f-16-3a-54-89-d1-72-e0-f5-91-c7-52-47-be-50-42-25-ee-5d-3e-3f-46-d7-56-0f-1d-49-71-c6-3f-ee]
           zkifc-711   [000] ....   560.688920: i2c_result: i2c-1 n=1 ret=1
           zkifc-711   [000] ....   560.689027: i2c_read: i2c-1 #0 a=030 f=0001 l=20
           zkifc-711   [000] ....   560.689155: i2c_result: i2c-1 n=0 ret=-5
           zkifc-712   [000] ....   560.690086: i2c_write: i2c-1 #0 a=030 f=0000 l=612 [de-ad-be-ef-00-00-ff-ff-03-00-50-02-00-00-00-00-63-64-4f-33-34-eb-8b-6f-27-f1-82-c7-ae-39-4f-77-8c-27-d3-37-42-e4-4d-7f-f4-01-bd-18-ac-46-f7-c2-ee-09-47-0e-c1-c0-b9-28-a9-f0-e2-b6-8e-39-c0-11]
           zkifc-712   [000] ....   560.745304: i2c_result: i2c-1 n=1 ret=1
           zkifc-711   [000] ....   560.752320: i2c_read: i2c-1 #0 a=030 f=0001 l=20
           zkifc-711   [000] ....   560.754345: i2c_reply: i2c-1 #0 a=030 f=0001 l=20 [de-ad-be-ef-00-00-ff-ff-00-01-40-02-00-00-00-00-63-64-88-bc]
           zkifc-711   [000] ....   560.754357: i2c_result: i2c-1 n=1 ret=1
           zkifc-711   [000] ....   560.754413: i2c_read: i2c-1 #0 a=030 f=0001 l=596
           zkifc-711   [000] ....   560.808196: i2c_reply: i2c-1 #0 a=030 f=0001 l=596 [de-ad-be-ef-00-00-ff-ff-00-01-40-02-00-00-00-00-63-64-88-bc-91-e6-5e-44-1b-42-64-80-d4-b2-e1-6d-0c-bf-22-4f-83-89-f4-93-74-72-5e-15-ed-95-4b-77-82-85-58-78-3e-3f-46-d7-56-0f-1d-49-71-c6-3f-ee]
           zkifc-711   [000] ....   560.808202: i2c_result: i2c-1 n=1 ret=1
           zkifc-711   [000] ....   560.808429: i2c_read: i2c-1 #0 a=030 f=0001 l=20
           zkifc-711   [000] ....   560.808560: i2c_result: i2c-1 n=0 ret=-5
           zkifc-712   [000] ....   560.809710: i2c_write: i2c-1 #0 a=030 f=0000 l=612 [de-ad-be-ef-00-00-ff-ff-03-00-50-02-00-00-00-00-6e-66-6c-74-2e-25-03-aa-a8-46-4c-bd-e6-85-de-18-c0-fc-b8-b7-22-98-20-26-61-27-af-b3-88-19-cd-c6-f7-e4-dd-be-c1-c0-b9-28-a9-f0-e2-b6-8e-39-c0-11]
           zkifc-712   [000] ....   560.864959: i2c_result: i2c-1 n=1 ret=1
           zkifc-711   [000] ....   560.872278: i2c_read: i2c-1 #0 a=030 f=0001 l=20
           zkifc-711   [000] ....   560.874218: i2c_reply: i2c-1 #0 a=030 f=0001 l=20 [de-ad-be-ef-00-00-ff-ff-00-01-40-02-00-00-00-00-6e-66-10-bc]
           zkifc-711   [000] ....   560.874219: i2c_result: i2c-1 n=1 ret=1
           zkifc-711   [000] ....   560.874225: i2c_read: i2c-1 #0 a=030 f=0001 l=596
           zkifc-711   [000] ....   560.927998: i2c_reply: i2c-1 #0 a=030 f=0001 l=596 [de-ad-be-ef-00-00-ff-ff-00-01-40-02-00-00-00-00-6e-66-10-bc-df-d4-fe-0f-df-09-1a-48-fe-57-0b-3b-5c-c6-cf-31-e4-ee-02-7b-a4-c4-65-26-4e-da-49-c7-4a-7c-75-0d-3e-3f-46-d7-56-0f-1d-49-71-c6-3f-ee]
           zkifc-711   [000] ....   560.928000: i2c_result: i2c-1 n=1 ret=1
           zkifc-711   [000] ....   560.928171: i2c_read: i2c-1 #0 a=030 f=0001 l=20
           zkifc-711   [000] ....   560.928300: i2c_result: i2c-1 n=0 ret=-5
           zkifc-712   [000] ....   560.929407: i2c_write: i2c-1 #0 a=030 f=0000 l=612 [de-ad-be-ef-00-00-ff-ff-03-00-50-02-00-00-00-00-41-42-69-66-22-23-6c-b3-cc-7b-f4-14-50-b1-6c-c3-af-70-0c-23-ab-2c-14-16-55-c3-00-ed-a9-e0-c4-35-67-27-9d-7c-c1-c0-b9-28-a9-f0-e2-b6-8e-39-c0-11]
           zkifc-712   [000] ....   560.984620: i2c_result: i2c-1 n=1 ret=1
           zkifc-711   [000] ....   560.991234: i2c_read: i2c-1 #0 a=030 f=0001 l=20
           zkifc-711   [000] ....   560.993165: i2c_reply: i2c-1 #0 a=030 f=0001 l=20 [de-ad-be-ef-00-00-ff-ff-00-01-40-02-00-00-00-00-41-42-99-bb]
           zkifc-711   [000] ....   560.993166: i2c_result: i2c-1 n=1 ret=1
           zkifc-711   [000] ....   560.993170: i2c_read: i2c-1 #0 a=030 f=0001 l=596
           zkifc-711   [000] ....   561.046943: i2c_reply: i2c-1 #0 a=030 f=0001 l=596 [de-ad-be-ef-00-00-ff-ff-00-01-40-02-00-00-00-00-41-42-99-bb-67-6c-ab-05-62-ba-ae-3f-a1-da-95-5b-b6-e6-4d-1c-d3-b3-c6-cf-62-ac-8d-89-be-32-73-25-26-28-d4-88-3e-3f-46-d7-56-0f-1d-49-71-c6-3f-ee]
           zkifc-711   [000] ....   561.046944: i2c_result: i2c-1 n=1 ret=1
           zkifc-711   [000] ....   561.047099: i2c_read: i2c-1 #0 a=030 f=0001 l=20
           zkifc-711   [000] ....   561.047228: i2c_result: i2c-1 n=0 ret=-5
           zkifc-712   [000] ....   561.048273: i2c_write: i2c-1 #0 a=030 f=0000 l=612 [de-ad-be-ef-00-00-ff-ff-03-00-50-02-00-00-00-00-49-32-4b-76-a7-64-40-aa-8e-b3-69-15-d5-19-13-71-8c-95-ec-2c-7e-98-5a-63-a6-8c-8a-d6-91-6d-57-9a-b9-6d-89-07-c1-c0-b9-28-a9-f0-e2-b6-8e-39-c0-11]
           zkifc-712   [000] ....   561.103490: i2c_result: i2c-1 n=1 ret=1
           zkifc-711   [000] ....   561.110230: i2c_read: i2c-1 #0 a=030 f=0001 l=20
           zkifc-711   [000] ....   561.112158: i2c_reply: i2c-1 #0 a=030 f=0001 l=20 [de-ad-be-ef-00-00-ff-ff-00-01-40-02-00-00-00-00-49-32-22-bb]
           zkifc-711   [000] ....   561.112160: i2c_result: i2c-1 n=1 ret=1
           zkifc-711   [000] ....   561.112164: i2c_read: i2c-1 #0 a=030 f=0001 l=596
           zkifc-711   [000] ....   561.165938: i2c_reply: i2c-1 #0 a=030 f=0001 l=596 [de-ad-be-ef-00-00-ff-ff-00-01-40-02-00-00-00-00-49-32-22-bb-31-30-a5-98-ea-09-ed-7e-0f-d9-96-41-b8-5e-62-d2-32-d2-c1-3f-49-ed-9b-b0-f0-8c-47-0f-d2-9a-c9-96-3e-3f-46-d7-56-0f-1d-49-71-c6-3f-ee]
           zkifc-711   [000] ....   561.165939: i2c_result: i2c-1 n=1 ret=1
           zkifc-711   [000] ....   561.166046: i2c_read: i2c-1 #0 a=030 f=0001 l=20
           zkifc-711   [000] ....   561.166174: i2c_result: i2c-1 n=0 ret=-5
           zkifc-712   [000] ....   561.167103: i2c_write: i2c-1 #0 a=030 f=0000 l=612 [de-ad-be-ef-00-00-ff-ff-03-00-50-02-00-00-00-00-47-67-55-66-f0-89-84-05-9b-1f-fb-91-e5-45-66-a8-7c-e6-ee-80-a6-a6-97-a5-24-a4-7e-8e-9d-ae-90-54-60-17-8c-eb-c1-c0-b9-28-a9-f0-e2-b6-8e-39-c0-11]
           zkifc-712   [000] ....   561.222316: i2c_result: i2c-1 n=1 ret=1
           zkifc-711   [000] ....   561.229226: i2c_read: i2c-1 #0 a=030 f=0001 l=20
           zkifc-711   [000] ....   561.231157: i2c_reply: i2c-1 #0 a=030 f=0001 l=20 [de-ad-be-ef-00-00-ff-ff-00-01-40-02-00-00-00-00-47-67-ab-ba]
           zkifc-711   [000] ....   561.231158: i2c_result: i2c-1 n=1 ret=1
           zkifc-711   [000] ....   561.231162: i2c_read: i2c-1 #0 a=030 f=0001 l=596
           zkifc-711   [000] ....   561.284934: i2c_reply: i2c-1 #0 a=030 f=0001 l=596 [de-ad-be-ef-00-00-ff-ff-00-01-40-02-00-00-00-00-47-67-ab-ba-6e-e7-0a-8d-49-19-67-6f-a7-ce-48-79-50-67-c3-24-b9-f8-40-96-3e-50-7e-6f-41-40-78-68-b9-89-bb-8c-3e-3f-46-d7-56-0f-1d-49-71-c6-3f-ee]
           zkifc-711   [000] ....   561.284936: i2c_result: i2c-1 n=1 ret=1
           zkifc-711   [000] ....   561.285040: i2c_read: i2c-1 #0 a=030 f=0001 l=20
           zkifc-711   [000] ....   561.285169: i2c_result: i2c-1 n=0 ret=-5
           zkifc-712   [000] ....   561.286108: i2c_write: i2c-1 #0 a=030 f=0000 l=612 [de-ad-be-ef-00-00-ff-ff-03-00-50-02-00-00-00-00-65-6b-31-7a-8b-bb-4a-2c-c8-21-eb-0d-3f-bd-21-26-22-cd-eb-42-87-62-8d-b2-5f-5e-28-7f-93-b6-d4-0e-4f-51-19-61-c1-c0-b9-28-a9-f0-e2-b6-8e-39-c0-11]
           zkifc-712   [000] ....   561.341322: i2c_result: i2c-1 n=1 ret=1
           zkifc-711   [000] ....   561.348267: i2c_read: i2c-1 #0 a=030 f=0001 l=20
           zkifc-711   [000] ....   561.350205: i2c_reply: i2c-1 #0 a=030 f=0001 l=20 [de-ad-be-ef-00-00-ff-ff-00-01-40-02-00-00-00-00-65-6b-34-ba]
           zkifc-711   [000] ....   561.350207: i2c_result: i2c-1 n=1 ret=1
           zkifc-711   [000] ....   561.350211: i2c_read: i2c-1 #0 a=030 f=0001 l=596
           zkifc-711   [000] ....   561.403984: i2c_reply: i2c-1 #0 a=030 f=0001 l=596 [de-ad-be-ef-00-00-ff-ff-00-01-40-02-00-00-00-00-65-6b-34-ba-a2-76-87-5d-e8-12-33-1f-ac-a7-25-9c-74-4e-67-33-8d-90-e2-37-53-e6-ff-26-10-90-27-63-e0-71-f1-08-3e-3f-46-d7-56-0f-1d-49-71-c6-3f-ee]
           zkifc-711   [000] ....   561.403985: i2c_result: i2c-1 n=1 ret=1
           zkifc-711   [000] ....   561.404123: i2c_read: i2c-1 #0 a=030 f=0001 l=20
           zkifc-711   [000] ....   561.404252: i2c_result: i2c-1 n=0 ret=-5
           zkifc-712   [000] ....   561.405364: i2c_write: i2c-1 #0 a=030 f=0000 l=612 [de-ad-be-ef-00-00-ff-ff-03-00-50-02-00-00-00-00-63-64-36-73-58-33-e3-11-59-26-fe-33-99-cc-fe-20-1f-c6-fa-81-2d-a2-07-ac-ef-94-66-74-da-75-8a-bf-4b-9b-70-db-c1-c0-b9-28-a9-f0-e2-b6-8e-39-c0-11]
           zkifc-712   [000] ....   561.460577: i2c_result: i2c-1 n=1 ret=1
           zkifc-711   [000] ....   561.467237: i2c_read: i2c-1 #0 a=030 f=0001 l=20
           zkifc-711   [000] ....   561.469167: i2c_reply: i2c-1 #0 a=030 f=0001 l=20 [de-ad-be-ef-00-00-ff-ff-00-01-40-02-00-00-00-00-63-64-bd-b9]
           zkifc-711   [000] ....   561.469169: i2c_result: i2c-1 n=1 ret=1
           zkifc-711   [000] ....   561.469172: i2c_read: i2c-1 #0 a=030 f=0001 l=596
           zkifc-711   [000] ....   561.522947: i2c_reply: i2c-1 #0 a=030 f=0001 l=596 [de-ad-be-ef-00-00-ff-ff-00-01-40-02-00-00-00-00-63-64-bd-b9-87-3d-12-3b-16-0d-94-d2-c1-78-8c-76-9d-86-d7-d2-cd-d8-10-25-d9-42-67-c3-29-e8-67-cf-85-4c-62-57-3e-3f-46-d7-56-0f-1d-49-71-c6-3f-ee]
           zkifc-711   [000] ....   561.522949: i2c_result: i2c-1 n=1 ret=1
           zkifc-711   [000] ....   561.523058: i2c_read: i2c-1 #0 a=030 f=0001 l=20
           zkifc-711   [000] ....   561.523186: i2c_result: i2c-1 n=0 ret=-5
           zkifc-712   [000] ....   561.524116: i2c_write: i2c-1 #0 a=030 f=0000 l=612 [de-ad-be-ef-00-00-ff-ff-03-00-50-02-00-00-00-00-51-77-52-39-50-0e-f9-39-75-02-0b-58-25-10-13-bd-59-f2-a6-05-ba-bd-0a-39-55-a4-1d-83-d8-7b-c3-37-e5-44-25-9f-c1-c0-b9-28-a9-f0-e2-b6-8e-39-c0-11]
           zkifc-712   [000] ....   561.579329: i2c_result: i2c-1 n=1 ret=1
           zkifc-711   [000] ....   561.586242: i2c_read: i2c-1 #0 a=030 f=0001 l=20
           zkifc-711   [000] ....   561.588172: i2c_reply: i2c-1 #0 a=030 f=0001 l=20 [de-ad-be-ef-00-00-ff-ff-00-01-40-02-00-00-00-00-51-77-46-b9]
           zkifc-711   [000] ....   561.588173: i2c_result: i2c-1 n=1 ret=1
           zkifc-711   [000] ....   561.588177: i2c_read: i2c-1 #0 a=030 f=0001 l=596
           zkifc-711   [000] ....   561.641950: i2c_reply: i2c-1 #0 a=030 f=0001 l=596 [de-ad-be-ef-00-00-ff-ff-00-01-40-02-00-00-00-00-51-77-46-b9-fb-81-09-60-b8-fb-b2-99-59-d2-01-9c-98-e5-2f-a4-2a-e6-dd-e1-62-7a-a9-37-81-77-fb-02-01-df-f2-72-3e-3f-46-d7-56-0f-1d-49-71-c6-3f-ee]
           zkifc-711   [000] ....   561.641951: i2c_result: i2c-1 n=1 ret=1
           zkifc-711   [000] ....   561.642077: i2c_read: i2c-1 #0 a=030 f=0001 l=20
           zkifc-711   [000] ....   561.642205: i2c_result: i2c-1 n=0 ret=-5
           zkifc-712   [000] ....   561.643187: i2c_write: i2c-1 #0 a=030 f=0000 l=612 [de-ad-be-ef-00-00-ff-ff-03-00-50-02-00-00-00-00-48-6b-6f-50-36-86-b3-aa-5c-eb-b6-60-c0-11-58-e7-85-47-3f-6a-1c-66-48-d9-e7-ea-d7-c4-82-b1-1a-dc-08-9a-d0-4b-c1-c0-b9-28-a9-f0-e2-b6-8e-39-c0-11]
           zkifc-712   [000] ....   561.698402: i2c_result: i2c-1 n=1 ret=1
           zkifc-711   [000] ....   561.705249: i2c_read: i2c-1 #0 a=030 f=0001 l=20
           zkifc-711   [000] ....   561.707179: i2c_reply: i2c-1 #0 a=030 f=0001 l=20 [de-ad-be-ef-00-00-ff-ff-00-01-40-02-00-00-00-00-48-6b-cf-b8]
           zkifc-711   [000] ....   561.707181: i2c_result: i2c-1 n=1 ret=1
           zkifc-711   [000] ....   561.707185: i2c_read: i2c-1 #0 a=030 f=0001 l=596
           zkifc-711   [000] ....   561.760959: i2c_reply: i2c-1 #0 a=030 f=0001 l=596 [de-ad-be-ef-00-00-ff-ff-00-01-40-02-00-00-00-00-48-6b-cf-b8-48-3e-76-35-54-ed-bb-8d-92-a1-52-1c-63-b3-b6-a5-dd-57-9d-d4-72-c4-f6-d4-dc-81-13-c4-2a-2f-f4-6f-3e-3f-46-d7-56-0f-1d-49-71-c6-3f-ee]
           zkifc-711   [000] ....   561.760961: i2c_result: i2c-1 n=1 ret=1
           zkifc-711   [000] ....   561.761073: i2c_read: i2c-1 #0 a=030 f=0001 l=20
           zkifc-711   [000] ....   561.761202: i2c_result: i2c-1 n=0 ret=-5
           zkifc-712   [000] ....   561.762189: i2c_write: i2c-1 #0 a=030 f=0000 l=612 [de-ad-be-ef-00-00-ff-ff-03-00-50-02-00-00-00-00-4c-55-53-62-4c-aa-46-77-7d-c1-bb-f0-15-91-fe-e6-f7-a8-a0-2b-8c-ee-4d-62-36-4e-e6-21-a5-59-37-39-58-c9-af-90-c1-c0-b9-28-a9-f0-e2-b6-8e-39-c0-11]
           zkifc-712   [000] ....   561.817402: i2c_result: i2c-1 n=1 ret=1
           zkifc-711   [000] ....   561.824262: i2c_read: i2c-1 #0 a=030 f=0001 l=20
           zkifc-711   [000] ....   561.826192: i2c_reply: i2c-1 #0 a=030 f=0001 l=20 [de-ad-be-ef-00-00-ff-ff-00-01-40-02-00-00-00-00-4c-55-58-b8]
           zkifc-711   [000] ....   561.826194: i2c_result: i2c-1 n=1 ret=1
           zkifc-711   [000] ....   561.826198: i2c_read: i2c-1 #0 a=030 f=0001 l=596
           zkifc-711   [000] ....   561.879969: i2c_reply: i2c-1 #0 a=030 f=0001 l=596 [de-ad-be-ef-00-00-ff-ff-00-01-40-02-00-00-00-00-4c-55-58-b8-71-0b-da-ae-b9-65-02-52-d7-78-d7-0e-c3-69-af-df-f3-52-d4-84-ab-6c-6c-8e-b0-77-2f-f6-ac-e9-06-18-3e-3f-46-d7-56-0f-1d-49-71-c6-3f-ee]
           zkifc-711   [000] ....   561.879971: i2c_result: i2c-1 n=1 ret=1
           zkifc-711   [000] ....   561.880090: i2c_read: i2c-1 #0 a=030 f=0001 l=20
           zkifc-711   [000] ....   561.880218: i2c_result: i2c-1 n=0 ret=-5
           zkifc-712   [000] ....   561.881192: i2c_write: i2c-1 #0 a=030 f=0000 l=612 [de-ad-be-ef-00-00-ff-ff-03-00-50-02-00-00-00-00-58-50-63-34-cc-13-6f-19-86-c3-d3-7f-72-ac-6b-99-67-29-c1-89-34-e2-07-3f-3a-fb-58-4e-27-5a-e0-91-1a-d4-54-65-c1-c0-b9-28-a9-f0-e2-b6-8e-39-c0-11]
           zkifc-712   [000] ....   561.936412: i2c_result: i2c-1 n=1 ret=1
           zkifc-711   [000] ....   561.943310: i2c_read: i2c-1 #0 a=030 f=0001 l=20
           zkifc-711   [000] .n..   561.945249: i2c_reply: i2c-1 #0 a=030 f=0001 l=20 [de-ad-be-ef-00-00-ff-ff-00-01-40-02-00-00-00-00-58-50-e1-b7]
           zkifc-711   [000] .n..   561.945250: i2c_result: i2c-1 n=1 ret=1
           zkifc-711   [000] ....   561.945264: i2c_read: i2c-1 #0 a=030 f=0001 l=596
           zkifc-711   [000] ....   561.999070: i2c_reply: i2c-1 #0 a=030 f=0001 l=596 [de-ad-be-ef-00-00-ff-ff-00-01-40-02-00-00-00-00-58-50-e1-b7-a0-c0-28-42-a8-f5-49-68-e0-ad-35-1e-3b-14-1e-48-31-8f-1a-57-5f-8d-d1-de-b1-5d-3a-83-33-96-cb-2c-3e-3f-46-d7-56-0f-1d-49-71-c6-3f-ee]
           zkifc-711   [000] ....   561.999077: i2c_result: i2c-1 n=1 ret=1
           zkifc-711   [000] ....   561.999359: i2c_read: i2c-1 #0 a=030 f=0001 l=20
           zkifc-711   [000] ....   561.999502: i2c_result: i2c-1 n=0 ret=-5
           zkifc-712   [000] ....   562.000818: i2c_write: i2c-1 #0 a=030 f=0000 l=612 [de-ad-be-ef-00-00-ff-ff-03-00-50-02-00-00-00-00-47-47-6b-44-18-cf-95-64-de-13-4a-a8-79-12-4d-5f-04-86-06-e6-0c-36-8c-68-19-55-7a-e2-c3-82-c2-79-5d-78-03-43-c1-c0-b9-28-a9-f0-e2-b6-8e-39-c0-11]
           zkifc-712   [000] ....   562.056042: i2c_result: i2c-1 n=1 ret=1
           zkifc-711   [000] ....   562.063320: i2c_read: i2c-1 #0 a=030 f=0001 l=20
           zkifc-711   [000] ....   562.065259: i2c_reply: i2c-1 #0 a=030 f=0001 l=20 [de-ad-be-ef-00-00-ff-ff-00-01-40-02-00-00-00-00-47-47-69-b7]
           zkifc-711   [000] ....   562.065261: i2c_result: i2c-1 n=1 ret=1
           zkifc-711   [000] ....   562.065265: i2c_read: i2c-1 #0 a=030 f=0001 l=596
           zkifc-711   [000] ....   562.119038: i2c_reply: i2c-1 #0 a=030 f=0001 l=596 [de-ad-be-ef-00-00-ff-ff-00-01-40-02-00-00-00-00-47-47-69-b7-7f-97-1c-84-82-eb-a4-96-93-9c-dc-da-8c-c0-9e-e8-6e-5e-af-a7-ca-1c-b2-cd-b8-50-d4-1f-b5-f9-bf-e4-3e-3f-46-d7-56-0f-1d-49-71-c6-3f-ee]
           zkifc-711   [000] ....   562.119040: i2c_result: i2c-1 n=1 ret=1
           zkifc-711   [000] ....   562.119216: i2c_read: i2c-1 #0 a=030 f=0001 l=20
           zkifc-711   [000] ....   562.119344: i2c_result: i2c-1 n=0 ret=-5
           zkifc-712   [000] ....   562.120470: i2c_write: i2c-1 #0 a=030 f=0000 l=612 [de-ad-be-ef-00-00-ff-ff-03-00-50-02-00-00-00-00-45-47-62-59-c0-e8-b4-79-71-10-ce-a3-be-b0-fe-e7-e6-14-29-9c-70-fe-d6-d0-c8-26-ca-97-e5-ee-b2-c2-2d-40-e3-74-c1-c0-b9-28-a9-f0-e2-b6-8e-39-c0-11]
           zkifc-712   [000] ....   562.175686: i2c_result: i2c-1 n=1 ret=1
           zkifc-711   [000] ....   562.182274: i2c_read: i2c-1 #0 a=030 f=0001 l=20
           zkifc-711   [000] ....   562.184204: i2c_reply: i2c-1 #0 a=030 f=0001 l=20 [de-ad-be-ef-00-00-ff-ff-00-01-40-02-00-00-00-00-45-47-f2-b6]
           zkifc-711   [000] ....   562.184205: i2c_result: i2c-1 n=1 ret=1
           zkifc-711   [000] ....   562.184209: i2c_read: i2c-1 #0 a=030 f=0001 l=596
           zkifc-711   [000] ....   562.238001: i2c_reply: i2c-1 #0 a=030 f=0001 l=596 [de-ad-be-ef-00-00-ff-ff-00-01-40-02-00-00-00-00-45-47-f2-b6-b7-ed-10-68-7b-dc-b2-a3-48-64-d7-a4-bf-e6-ea-20-a2-ef-0b-bb-a4-a5-40-ea-17-d8-38-ad-13-64-21-f3-3e-3f-46-d7-56-0f-1d-49-71-c6-3f-ee]
           zkifc-711   [000] ....   562.238008: i2c_result: i2c-1 n=1 ret=1
           zkifc-711   [000] ....   562.238258: i2c_read: i2c-1 #0 a=030 f=0001 l=20
           zkifc-711   [000] ....   562.238391: i2c_result: i2c-1 n=0 ret=-5
           zkifc-712   [000] ....   562.239528: i2c_write: i2c-1 #0 a=030 f=0000 l=612 [de-ad-be-ef-00-00-ff-ff-03-00-50-02-00-00-00-00-6e-74-36-7a-9f-ea-1f-80-96-4b-db-c4-62-df-03-4b-d3-fc-bd-db-2b-a8-46-2e-36-64-fa-53-ad-e1-b0-ce-8d-78-89-bc-c1-c0-b9-28-a9-f0-e2-b6-8e-39-c0-11]
           zkifc-712   [000] ....   562.294810: i2c_result: i2c-1 n=1 ret=1
           zkifc-711   [000] ....   562.301403: i2c_read: i2c-1 #0 a=030 f=0001 l=20
           zkifc-711   [000] ....   562.303363: i2c_reply: i2c-1 #0 a=030 f=0001 l=20 [de-ad-be-ef-00-00-ff-ff-00-01-40-02-00-00-00-00-6e-74-7b-b6]
           zkifc-711   [000] ....   562.303371: i2c_result: i2c-1 n=1 ret=1
           zkifc-711   [000] ....   562.303387: i2c_read: i2c-1 #0 a=030 f=0001 l=596
           zkifc-711   [000] ....   562.357175: i2c_reply: i2c-1 #0 a=030 f=0001 l=596 [de-ad-be-ef-00-00-ff-ff-00-01-40-02-00-00-00-00-6e-74-7b-b6-76-44-b9-87-10-c1-67-0a-84-f1-6f-c3-0a-ea-2d-9e-fd-a6-8a-cc-4a-29-8a-fb-5a-0b-6e-09-cf-bc-0f-77-3e-3f-46-d7-56-0f-1d-49-71-c6-3f-ee]
           zkifc-711   [000] ....   562.357180: i2c_result: i2c-1 n=1 ret=1
           zkifc-711   [000] ....   562.357401: i2c_read: i2c-1 #0 a=030 f=0001 l=20
           zkifc-711   [000] ....   562.357530: i2c_result: i2c-1 n=0 ret=-5
           zkifc-712   [000] ....   562.358651: i2c_write: i2c-1 #0 a=030 f=0000 l=612 [de-ad-be-ef-00-00-ff-ff-03-00-50-02-00-00-00-00-69-46-52-78-f4-0e-b2-0a-55-9c-64-0b-f9-4c-d7-32-d9-ed-fc-18-19-55-68-2c-69-79-57-bb-47-56-47-3b-f9-ea-04-2b-c1-c0-b9-28-a9-f0-e2-b6-8e-39-c0-11]
           zkifc-712   [000] ....   562.413867: i2c_result: i2c-1 n=1 ret=1
           zkifc-711   [000] ....   562.421288: i2c_read: i2c-1 #0 a=030 f=0001 l=20
           zkifc-711   [000] ....   562.423218: i2c_reply: i2c-1 #0 a=030 f=0001 l=20 [de-ad-be-ef-00-00-ff-ff-00-01-40-02-00-00-00-00-69-46-03-b6]
           zkifc-711   [000] ....   562.423219: i2c_result: i2c-1 n=1 ret=1
           zkifc-711   [000] ....   562.423223: i2c_read: i2c-1 #0 a=030 f=0001 l=596
           zkifc-711   [000] ....   562.477037: i2c_reply: i2c-1 #0 a=030 f=0001 l=596 [de-ad-be-ef-00-00-ff-ff-00-01-40-02-00-00-00-00-69-46-03-b6-28-82-76-61-3e-d1-7e-3a-a6-42-bf-5e-6b-99-45-ca-8f-5a-4f-8a-40-dc-59-39-89-2b-43-ca-9a-4d-d9-99-3e-3f-46-d7-56-0f-1d-49-71-c6-3f-ee]
           zkifc-711   [000] ....   562.477051: i2c_result: i2c-1 n=1 ret=1
           zkifc-711   [000] ....   562.477442: i2c_read: i2c-1 #0 a=030 f=0001 l=20
           zkifc-711   [000] ....   562.477644: i2c_result: i2c-1 n=0 ret=-5
           zkifc-712   [000] ....   562.478890: i2c_write: i2c-1 #0 a=030 f=0000 l=612 [de-ad-be-ef-00-00-ff-ff-03-00-50-02-00-00-00-00-61-51-57-53-ab-a3-dd-50-55-a9-66-43-58-e8-44-89-d9-37-98-b4-4b-64-29-96-f1-8d-79-33-a5-51-37-80-89-24-07-83-c1-c0-b9-28-a9-f0-e2-b6-8e-39-c0-11]
           zkifc-712   [000] ....   562.534171: i2c_result: i2c-1 n=1 ret=1
           zkifc-711   [000] ....   562.541419: i2c_read: i2c-1 #0 a=030 f=0001 l=20
           zkifc-711   [000] ....   562.543379: i2c_reply: i2c-1 #0 a=030 f=0001 l=20 [de-ad-be-ef-00-00-ff-ff-00-01-40-02-00-00-00-00-61-51-8b-b5]
           zkifc-711   [000] ....   562.543385: i2c_result: i2c-1 n=1 ret=1
           zkifc-711   [000] ....   562.543403: i2c_read: i2c-1 #0 a=030 f=0001 l=596
           zkifc-711   [000] ....   562.597182: i2c_reply: i2c-1 #0 a=030 f=0001 l=596 [de-ad-be-ef-00-00-ff-ff-00-01-40-02-00-00-00-00-61-51-8b-b5-a8-ee-30-96-3b-55-22-45-43-cf-10-2a-20-02-0f-92-05-eb-e6-9a-c3-82-12-86-1b-17-e0-1d-84-9a-91-54-3e-3f-46-d7-56-0f-1d-49-71-c6-3f-ee]
           zkifc-711   [000] ....   562.597187: i2c_result: i2c-1 n=1 ret=1
           zkifc-711   [000] ....   562.597408: i2c_read: i2c-1 #0 a=030 f=0001 l=20
           zkifc-711   [000] ....   562.597537: i2c_result: i2c-1 n=0 ret=-5
           zkifc-712   [000] ....   562.597873: i2c_write: i2c-1 #0 a=030 f=0000 l=84 [de-ad-be-ef-00-00-ff-ff-03-00-40-00-00-00-00-00-64-15-80-75-9b-0e-5d-e0-d3-d1-26-85-a9-1b-0c-26-c6-cd-44-9b-bc-6c-88-ac-73-96-47-d0-09-08-91-e8-c4-0d-7a-1d-c1-c0-b9-28-a9-f0-e2-b6-8e-39-c0-11]
           zkifc-712   [000] ....   562.605562: i2c_result: i2c-1 n=1 ret=1
           zkifc-711   [000] ....   562.608298: i2c_read: i2c-1 #0 a=030 f=0001 l=20
           zkifc-711   [000] ....   562.610228: i2c_reply: i2c-1 #0 a=030 f=0001 l=20 [de-ad-be-ef-00-00-ff-ff-00-01-40-00-00-00-00-00-64-15-48-b5]
           zkifc-711   [000] ....   562.610230: i2c_result: i2c-1 n=1 ret=1
           zkifc-711   [000] ....   562.610234: i2c_read: i2c-1 #0 a=030 f=0001 l=84
           zkifc-711   [000] ....   562.617921: i2c_reply: i2c-1 #0 a=030 f=0001 l=84 [de-ad-be-ef-00-00-ff-ff-00-01-40-00-00-00-00-00-64-15-48-b5-8b-ae-3f-7d-65-61-44-bd-95-c3-19-e5-a5-1e-9e-38-2b-88-dc-30-aa-ee-53-66-9b-55-dd-f2-df-91-e2-fd-3e-3f-46-d7-56-0f-1d-49-71-c6-3f-ee]
           zkifc-711   [000] ....   562.617923: i2c_result: i2c-1 n=1 ret=1
           zkifc-711   [000] ....   562.618001: i2c_read: i2c-1 #0 a=030 f=0001 l=20
           zkifc-711   [000] ....   562.618131: i2c_result: i2c-1 n=0 ret=-5
           zkifc-712   [000] ....   562.618486: i2c_write: i2c-1 #0 a=030 f=0000 l=612 [de-ad-be-ef-00-00-ff-ff-03-00-50-02-00-00-00-00-30-68-59-50-69-6d-36-da-69-46-7d-d1-66-85-3c-83-90-e7-82-11-e9-c5-95-22-44-85-cb-ff-0c-02-17-51-43-94-9c-71-c1-c0-b9-28-a9-f0-e2-b6-8e-39-c0-11]
           zkifc-712   [000] ....   562.673700: i2c_result: i2c-1 n=1 ret=1
           zkifc-711   [000] ....   562.680280: i2c_read: i2c-1 #0 a=030 f=0001 l=20
           zkifc-711   [000] ....   562.682207: i2c_reply: i2c-1 #0 a=030 f=0001 l=20 [de-ad-be-ef-00-00-ff-ff-00-01-40-02-00-00-00-00-30-68-00-b5]
           zkifc-711   [000] ....   562.682209: i2c_result: i2c-1 n=1 ret=1
           zkifc-711   [000] ....   562.682212: i2c_read: i2c-1 #0 a=030 f=0001 l=596
           zkifc-711   [000] ....   562.736004: i2c_reply: i2c-1 #0 a=030 f=0001 l=596 [de-ad-be-ef-00-00-ff-ff-00-01-40-02-00-00-00-00-30-68-00-b5-71-8d-01-8b-5f-b4-ea-a2-f5-d7-f3-66-2e-3e-f3-40-28-d6-24-66-af-ae-89-fe-86-b5-3c-c6-6e-2f-1d-3d-3e-3f-46-d7-56-0f-1d-49-71-c6-3f-ee]
           zkifc-711   [000] ....   562.736013: i2c_result: i2c-1 n=1 ret=1
           zkifc-711   [000] ....   562.736283: i2c_read: i2c-1 #0 a=030 f=0001 l=20
           zkifc-711   [000] ....   562.736418: i2c_result: i2c-1 n=0 ret=-5
           zkifc-712   [000] ....   562.737566: i2c_write: i2c-1 #0 a=030 f=0000 l=612 [de-ad-be-ef-00-00-ff-ff-03-00-50-02-00-00-00-00-73-41-30-79-f4-2c-23-00-38-19-f8-aa-31-ae-31-7a-1e-17-73-63-54-93-b7-1a-05-7c-4e-19-c5-f7-3f-e4-19-62-0b-c5-c1-c0-b9-28-a9-f0-e2-b6-8e-39-c0-11]
           zkifc-712   [000] ....   562.792802: i2c_result: i2c-1 n=1 ret=1
           zkifc-711   [000] ....   562.799454: i2c_read: i2c-1 #0 a=030 f=0001 l=20
           zkifc-711   [000] ....   562.801441: i2c_reply: i2c-1 #0 a=030 f=0001 l=20 [de-ad-be-ef-00-00-ff-ff-00-01-40-02-00-00-00-00-73-41-89-b4]
           zkifc-711   [000] ....   562.801452: i2c_result: i2c-1 n=1 ret=1
           zkifc-711   [000] ....   562.801479: i2c_read: i2c-1 #0 a=030 f=0001 l=596
           zkifc-711   [000] ....   562.855261: i2c_reply: i2c-1 #0 a=030 f=0001 l=596 [de-ad-be-ef-00-00-ff-ff-00-01-40-02-00-00-00-00-73-41-89-b4-5f-52-31-21-a6-b0-ad-50-05-eb-99-3a-76-7e-b4-c6-c1-f7-3e-3f-da-fc-f2-0f-90-18-ba-10-d4-82-47-a4-3e-3f-46-d7-56-0f-1d-49-71-c6-3f-ee]
           zkifc-711   [000] ....   562.855267: i2c_result: i2c-1 n=1 ret=1
           zkifc-711   [000] ....   562.855486: i2c_read: i2c-1 #0 a=030 f=0001 l=20
           zkifc-711   [000] ....   562.855615: i2c_result: i2c-1 n=0 ret=-5
           zkifc-712   [000] ....   562.856722: i2c_write: i2c-1 #0 a=030 f=0000 l=612 [de-ad-be-ef-00-00-ff-ff-03-00-50-02-00-00-00-00-33-4d-55-4a-66-b7-d2-d6-c6-70-b7-7a-6d-65-87-ec-93-5e-88-f4-1f-e0-ec-0d-82-b4-d9-b1-98-1f-5f-c2-75-05-8c-01-c1-c0-b9-28-a9-f0-e2-b6-8e-39-c0-11]
           zkifc-712   [000] ....   562.911937: i2c_result: i2c-1 n=1 ret=1
           zkifc-711   [000] ....   562.919318: i2c_read: i2c-1 #0 a=030 f=0001 l=20
           zkifc-711   [000] ....   562.921248: i2c_reply: i2c-1 #0 a=030 f=0001 l=20 [de-ad-be-ef-00-00-ff-ff-00-01-40-02-00-00-00-00-33-4d-11-b4]
           zkifc-711   [000] ....   562.921249: i2c_result: i2c-1 n=1 ret=1
           zkifc-711   [000] ....   562.921252: i2c_read: i2c-1 #0 a=030 f=0001 l=596
           zkifc-711   [000] ....   562.975035: i2c_reply: i2c-1 #0 a=030 f=0001 l=596 [de-ad-be-ef-00-00-ff-ff-00-01-40-02-00-00-00-00-33-4d-11-b4-92-b5-37-ee-20-be-e3-83-3c-6e-bc-2d-5d-5a-67-da-9e-07-1b-c9-c0-a6-cd-81-11-dd-32-3a-8b-d2-e1-a9-3e-3f-46-d7-56-0f-1d-49-71-c6-3f-ee]
           zkifc-711   [000] ....   562.975041: i2c_result: i2c-1 n=1 ret=1
           zkifc-711   [000] ....   562.975287: i2c_read: i2c-1 #0 a=030 f=0001 l=20
           zkifc-711   [000] ....   562.975435: i2c_result: i2c-1 n=0 ret=-5
           zkifc-712   [000] ....   562.976721: i2c_write: i2c-1 #0 a=030 f=0000 l=612 [de-ad-be-ef-00-00-ff-ff-03-00-50-02-00-00-00-00-77-34-61-67-60-76-c8-69-6f-76-3f-36-d8-81-ad-45-79-ae-97-d9-3b-c5-a5-1c-13-3f-c5-24-45-b7-1b-de-bd-76-79-cc-c1-c0-b9-28-a9-f0-e2-b6-8e-39-c0-11]
           zkifc-712   [000] ....   563.032020: i2c_result: i2c-1 n=1 ret=1
           zkifc-711   [000] ....   563.039442: i2c_read: i2c-1 #0 a=030 f=0001 l=20
           zkifc-711   [000] ....   563.041427: i2c_reply: i2c-1 #0 a=030 f=0001 l=20 [de-ad-be-ef-00-00-ff-ff-00-01-40-02-00-00-00-00-77-34-99-b3]
           zkifc-711   [000] ....   563.041437: i2c_result: i2c-1 n=1 ret=1
           zkifc-711   [000] ....   563.041465: i2c_read: i2c-1 #0 a=030 f=0001 l=596
           zkifc-711   [000] ....   563.095247: i2c_reply: i2c-1 #0 a=030 f=0001 l=596 [de-ad-be-ef-00-00-ff-ff-00-01-40-02-00-00-00-00-77-34-99-b3-9f-e3-0c-37-78-fa-f8-59-c7-b5-50-9d-74-d8-98-14-e4-fc-6a-be-62-c8-3a-08-af-60-cc-5e-54-19-a7-83-3e-3f-46-d7-56-0f-1d-49-71-c6-3f-ee]
           zkifc-711   [000] ....   563.095250: i2c_result: i2c-1 n=1 ret=1
           zkifc-711   [000] ....   563.095460: i2c_read: i2c-1 #0 a=030 f=0001 l=20
           zkifc-711   [000] ....   563.095590: i2c_result: i2c-1 n=0 ret=-5
           zkifc-712   [000] ....   563.096735: i2c_write: i2c-1 #0 a=030 f=0000 l=612 [de-ad-be-ef-00-00-ff-ff-03-00-50-02-00-00-00-00-6b-77-79-45-58-d5-e6-3f-10-8d-89-22-d8-36-b9-00-7b-d0-93-db-3c-7f-7c-14-9a-9a-5f-d1-8d-0d-08-52-a9-7c-87-29-c1-c0-b9-28-a9-f0-e2-b6-8e-39-c0-11]
           zkifc-712   [000] ....   563.151949: i2c_result: i2c-1 n=1 ret=1
           zkifc-711   [000] ....   563.159326: i2c_read: i2c-1 #0 a=030 f=0001 l=20
           zkifc-711   [000] ....   563.161255: i2c_reply: i2c-1 #0 a=030 f=0001 l=20 [de-ad-be-ef-00-00-ff-ff-00-01-40-02-00-00-00-00-6b-77-21-b3]
           zkifc-711   [000] ....   563.161257: i2c_result: i2c-1 n=1 ret=1
           zkifc-711   [000] ....   563.161260: i2c_read: i2c-1 #0 a=030 f=0001 l=596
           zkifc-711   [000] ....   563.215053: i2c_reply: i2c-1 #0 a=030 f=0001 l=596 [de-ad-be-ef-00-00-ff-ff-00-01-40-02-00-00-00-00-6b-77-21-b3-d1-14-84-37-15-74-08-21-9d-11-6c-66-94-21-75-5e-dc-78-c8-8a-9b-fa-15-e2-17-14-8a-5e-fb-6f-36-ed-3e-3f-46-d7-56-0f-1d-49-71-c6-3f-ee]
           zkifc-711   [000] ....   563.215060: i2c_result: i2c-1 n=1 ret=1
           zkifc-711   [000] ....   563.215312: i2c_read: i2c-1 #0 a=030 f=0001 l=20
           zkifc-711   [000] ....   563.215445: i2c_result: i2c-1 n=0 ret=-5
           zkifc-712   [000] ....   563.216677: i2c_write: i2c-1 #0 a=030 f=0000 l=612 [de-ad-be-ef-00-00-ff-ff-03-00-50-02-00-00-00-00-78-75-42-42-a0-85-44-27-fc-71-de-3c-73-71-53-ef-cf-64-c8-22-89-59-27-b9-69-90-9c-27-6a-52-39-10-08-47-16-cb-c1-c0-b9-28-a9-f0-e2-b6-8e-39-c0-11]
           zkifc-712   [000] ....   563.271904: i2c_result: i2c-1 n=1 ret=1
           zkifc-711   [000] ....   563.279381: i2c_read: i2c-1 #0 a=030 f=0001 l=20
           zkifc-711   [000] .n..   563.281319: i2c_reply: i2c-1 #0 a=030 f=0001 l=20 [de-ad-be-ef-00-00-ff-ff-00-01-40-02-00-00-00-00-78-75-a9-b2]
           zkifc-711   [000] .n..   563.281321: i2c_result: i2c-1 n=1 ret=1
           zkifc-711   [000] ....   563.281335: i2c_read: i2c-1 #0 a=030 f=0001 l=596
           zkifc-711   [000] ....   563.335107: i2c_reply: i2c-1 #0 a=030 f=0001 l=596 [de-ad-be-ef-00-00-ff-ff-00-01-40-02-00-00-00-00-78-75-a9-b2-24-bd-4a-f3-1e-83-51-33-f7-b0-f1-9c-71-16-1c-14-04-0b-89-a3-2c-03-38-15-1f-ca-c6-f9-f1-3b-be-d8-3e-3f-46-d7-56-0f-1d-49-71-c6-3f-ee]
           zkifc-711   [000] ....   563.335109: i2c_result: i2c-1 n=1 ret=1
           zkifc-711   [000] ....   563.335263: i2c_read: i2c-1 #0 a=030 f=0001 l=20
           zkifc-711   [000] ....   563.335393: i2c_result: i2c-1 n=0 ret=-5
